  can0  700   [2]  01 00
  can0  710   [3]  02 01 00
  can0  700   [4]  03 02 03 04
  can0  700   [5]  04 03 04 05 06
  can0  700   [6]  05 04 00 00 00 00
  can0  700   [7]  06 05 00 00 00 00 00
  can0  700   [8]  07 06 00 00 00 00 00 00
  can0  700   [8]  10 08 07 00 00 00 00 05
  can0  701   [3]  30 00 00
  can0  700   [3]  21 01 02
  can0  700   [8]  10 09 08 00 00 00 00 00
  can0  701   [3]  30 00 00
  can0  700   [4]  21 01 02 03
  can0  700   [8]  10 0A 09 00 00 00 00 00
  can0  701   [3]  30 00 00
  can0  700   [5]  21 00 00 00 00
  can0  700   [8]  10 0B 0A 00 00 00 00 00
  can0  701   [3]  30 00 00
  can0  700   [6]  21 00 00 00 00 00
  can0  700   [8]  10 0C 0B 00 00 00 00 00
  can0  701   [3]  30 00 00
  can0  700   [7]  21 00 00 00 00 00 00
  can0  700   [8]  10 0D 0C 00 00 00 00 00
  can0  701   [3]  30 00 00
  can0  700   [8]  21 00 00 00 00 00 00 00
  can0  700   [8]  10 0E 0D 00 00 00 00 00
  can0  701   [3]  30 00 00
  can0  700   [8]  21 00 00 00 00 00 00 00
  can0  700   [2]  22 00
  can0  700   [8]  10 0F 0E 00 00 00 00 00
  can0  701   [3]  30 00 00
  can0  700   [8]  21 00 00 00 00 00 00 00
  can0  700   [3]  22 00 00
  can0  700   [8]  10 10 0F 00 00 00 00 00
  can0  701   [3]  30 00 00
  can0  700   [8]  21 00 00 00 00 00 00 00
  can0  700   [4]  22 00 00 00
  can0  700   [8]  10 11 10 00 00 00 00 00
  can0  701   [3]  30 00 00
  can0  700   [8]  21 00 00 00 00 00 00 00
  can0  700   [5]  22 00 00 00 00
  can0  700   [8]  10 12 11 00 00 00 00 00
  can0  701   [3]  30 00 00
  can0  700   [8]  21 00 00 00 00 00 00 00
  can0  700   [6]  22 00 00 00 00 00
  can0  700   [8]  10 13 12 00 00 00 00 00
  can0  701   [3]  30 00 00
  can0  700   [8]  21 00 00 00 00 00 00 00
  can0  700   [7]  22 00 00 00 00 00 00
  can0  700   [8]  10 14 13 00 00 00 00 00
  can0  701   [3]  30 00 00
  can0  700   [8]  21 00 00 00 00 00 00 00
  can0  700   [8]  22 00 00 00 00 00 00 00
  can0  700   [8]  10 15 14 00 00 00 00 00
  can0  701   [3]  30 00 00
  can0  700   [8]  21 00 00 00 00 00 00 00
  can0  700   [8]  22 00 00 00 00 00 00 00
  can0  700   [2]  23 00
  can0  700   [8]  10 16 15 00 00 00 00 00
  can0  701   [3]  30 00 00
  can0  700   [8]  21 00 00 00 00 00 00 00
  can0  700   [8]  22 00 00 00 00 00 00 00
  can0  700   [3]  23 00 00
  can0  700   [8]  10 17 16 00 00 00 00 00
  can0  701   [3]  30 00 00
  can0  700   [8]  21 00 00 00 00 00 00 00
  can0  700   [8]  22 00 00 00 00 00 00 00
  can0  700   [4]  23 00 00 00
 