  can0  652   [8]  00 00 00 00 00 00 00 00
  can0  652   [8]  01 00 00 00 00 00 00 00
  can0  652   [8]  02 00 00 00 00 00 00 00
  can0  652   [8]  03 00 00 00 00 00 00 00
  can0  652   [8]  04 00 00 00 00 00 00 00
  can0  652   [8]  05 00 00 00 00 00 00 00
  can0  652   [8]  06 00 00 00 00 00 00 00
  can0  652   [8]  07 00 00 00 00 00 00 00
  can0  652   [8]  08 00 00 00 00 00 00 00
  can0  652   [8]  09 00 00 00 00 00 00 00
  can0  652   [8]  0A 00 00 00 00 00 00 00
  can0  652   [8]  0B 00 00 00 00 00 00 00
  can0  652   [8]  0C 00 00 00 00 00 00 00
  can0  652   [8]  0D 00 00 00 00 00 00 00
  can0  652   [8]  0E 00 00 00 00 00 00 00
  can0  652   [8]  0F 00 00 00 00 00 00 00
  can0  652   [8]  10 00 00 00 00 00 00 00
  can0  652   [8]  11 00 00 00 00 00 00 00
  can0  652   [8]  12 00 00 00 00 00 00 00
  can0  652   [8]  13 00 00 00 00 00 00 00
  can0  652   [8]  14 00 00 00 00 00 00 00
  can0  652   [8]  15 00 00 00 00 00 00 00
  can0  652   [8]  16 00 00 00 00 00 00 00
  can0  652   [8]  17 00 00 00 00 00 00 00
  can0  652   [8]  18 00 00 00 00 00 00 00
  can0  652   [8]  19 00 00 00 00 00 00 00
  can0  652   [8]  1A 00 00 00 00 00 00 00
  can0  652   [8]  1B 00 00 00 00 00 00 00
  can0  652   [8]  1C 00 00 00 00 00 00 00
  can0  652   [8]  1D 00 00 00 00 00 00 00
  can0  652   [8]  1E 00 00 00 00 00 00 00
  can0  652   [8]  1F 00 00 00 00 00 00 00
  can0  652   [8]  20 00 00 00 00 00 00 00
  can0  652   [8]  21 00 00 00 00 00 00 00
  can0  652   [8]  22 00 00 00 00 00 00 00
  can0  652   [8]  23 00 00 00 00 00 00 00
  can0  652   [8]  24 00 00 00 00 00 00 00
  can0  652   [8]  25 00 00 00 00 00 00 00
  can0  652   [8]  26 00 00 00 00 00 00 00
  can0  652   [8]  27 00 00 00 00 00 00 00
  can0  652   [8]  28 00 00 00 00 00 00 00
  can0  652   [8]  29 00 00 00 00 00 00 00
  can0  652   [8]  2A 00 00 00 00 00 00 00
  can0  652   [8]  2B 00 00 00 00 00 00 00
  can0  652   [8]  2C 00 00 00 00 00 00 00
  can0  652   [8]  2D 00 00 00 00 00 00 00
  can0  652   [8]  2E 00 00 00 00 00 00 00
  can0  652   [8]  2F 00 00 00 00 00 00 00
  can0  652   [8]  30 00 00 00 00 00 00 00
  can0  652   [8]  31 00 00 00 00 00 00 00
  can0  652   [8]  32 00 00 00 00 00 00 00
  can0  652   [8]  33 00 00 00 00 00 00 00
  can0  652   [8]  34 00 00 00 00 00 00 00
  can0  652   [8]  35 00 00 00 00 00 00 00
  can0  652   [8]  36 00 00 00 00 00 00 00
  can0  652   [8]  37 00 00 00 00 00 00 00
  can0  652   [8]  38 00 00 00 00 00 00 00
  can0  652   [8]  39 00 00 00 00 00 00 00
  can0  652   [8]  3A 00 00 00 00 00 00 00
  can0  652   [8]  3B 00 00 00 00 00 00 00
  can0  652   [8]  3C 00 00 00 00 00 00 00
  can0  652   [8]  3D 00 00 00 00 00 00 00
  can0  652   [8]  3E 00 00 00 00 00 00 00
  can0  652   [8]  3F 00 00 00 00 00 00 00
  can0  652   [8]  40 00 00 00 00 00 00 00
  can0  652   [8]  41 00 00 00 00 00 00 00
  can0  652   [8]  42 00 00 00 00 00 00 00
  can0  652   [8]  43 00 00 00 00 00 00 00
  can0  652   [8]  44 00 00 00 00 00 00 00
  can0  652   [8]  45 00 00 00 00 00 00 00
  can0  652   [8]  46 00 00 00 00 00 00 00
  can0  652   [8]  47 00 00 00 00 00 00 00
  can0  652   [8]  48 00 00 00 00 00 00 00
  can0  652   [8]  49 00 00 00 00 00 00 00
  can0  652   [8]  4A 00 00 00 00 00 00 00
  can0  652   [8]  4B 00 00 00 00 00 00 00
  can0  652   [8]  4C 00 00 00 00 00 00 00
  can0  652   [8]  4D 00 00 00 00 00 00 00
  can0  652   [8]  4E 00 00 00 00 00 00 00
  can0  652   [8]  4F 00 00 00 00 00 00 00
  can0  652   [8]  50 00 00 00 00 00 00 00
  can0  652   [8]  51 00 00 00 00 00 00 00
  can0  652   [8]  52 00 00 00 00 00 00 00
  can0  652   [8]  53 00 00 00 00 00 00 00
  can0  652   [8]  54 00 00 00 00 00 00 00
  can0  652   [8]  55 00 00 00 00 00 00 00
  can0  652   [8]  56 00 00 00 00 00 00 00
  can0  652   [8]  57 00 00 00 00 00 00 00
  can0  652   [8]  58 00 00 00 00 00 00 00
  can0  652   [8]  59 00 00 00 00 00 00 00
  can0  652   [8]  5A 00 00 00 00 00 00 00
  can0  652   [8]  5B 00 00 00 00 00 00 00
  can0  652   [8]  5C 00 00 00 00 00 00 00
  can0  652   [8]  5D 00 00 00 00 00 00 00
  can0  652   [8]  5E 00 00 00 00 00 00 00
  can0  652   [8]  5F 00 00 00 00 00 00 00
  can0  652   [8]  60 00 00 00 00 00 00 00
  can0  652   [8]  61 00 00 00 00 00 00 00
  can0  652   [8]  62 00 00 00 00 00 00 00
  can0  652   [8]  63 00 00 00 00 00 00 00
  can0  652   [8]  64 00 00 00 00 00 00 00
  can0  652   [8]  65 00 00 00 00 00 00 00
  can0  652   [8]  66 00 00 00 00 00 00 00
  can0  652   [8]  67 00 00 00 00 00 00 00
  can0  652   [8]  68 00 00 00 00 00 00 00
  can0  652   [8]  69 00 00 00 00 00 00 00
  can0  652   [8]  6A 00 00 00 00 00 00 00
  can0  652   [8]  6B 00 00 00 00 00 00 00
  can0  652   [8]  6C 00 00 00 00 00 00 00
  can0  652   [8]  6D 00 00 00 00 00 00 00
  can0  652   [8]  6E 00 00 00 00 00 00 00
  can0  652   [8]  6F 00 00 00 00 00 00 00
  can0  652   [8]  70 00 00 00 00 00 00 00
  can0  652   [8]  71 00 00 00 00 00 00 00
  can0  652   [8]  72 00 00 00 00 00 00 00
  can0  652   [8]  73 00 00 00 00 00 00 00
  can0  652   [8]  74 00 00 00 00 00 00 00
  can0  652   [8]  75 00 00 00 00 00 00 00
  can0  652   [8]  76 00 00 00 00 00 00 00
  can0  652   [8]  77 00 00 00 00 00 00 00
  can0  652   [8]  78 00 00 00 00 00 00 00
  can0  652   [8]  79 00 00 00 00 00 00 00
  can0  652   [8]  7A 00 00 00 00 00 00 00
  can0  652   [8]  7B 00 00 00 00 00 00 00
  can0  652   [8]  7C 00 00 00 00 00 00 00
  can0  652   [8]  7D 00 00 00 00 00 00 00
  can0  652   [8]  7E 00 00 00 00 00 00 00
  can0  652   [8]  7F 00 00 00 00 00 00 00
  can0  652   [8]  80 00 00 00 00 00 00 00
  can0  652   [8]  81 00 00 00 00 00 00 00
  can0  652   [8]  82 00 00 00 00 00 00 00
  can0  652   [8]  83 00 00 00 00 00 00 00
  can0  652   [8]  84 00 00 00 00 00 00 00
  can0  652   [8]  85 00 00 00 00 00 00 00
  can0  652   [8]  86 00 00 00 00 00 00 00
  can0  652   [8]  87 00 00 00 00 00 00 00
  can0  652   [8]  88 00 00 00 00 00 00 00
  can0  652   [8]  89 00 00 00 00 00 00 00
  can0  652   [8]  8A 00 00 00 00 00 00 00
  can0  652   [8]  8B 00 00 00 00 00 00 00
  can0  652   [8]  8C 00 00 00 00 00 00 00
  can0  652   [8]  8D 00 00 00 00 00 00 00
  can0  652   [8]  8E 00 00 00 00 00 00 00
  can0  652   [8]  8F 00 00 00 00 00 00 00
  can0  652   [8]  90 00 00 00 00 00 00 00
  can0  652   [8]  91 00 00 00 00 00 00 00
  can0  652   [8]  92 00 00 00 00 00 00 00
  can0  652   [8]  93 00 00 00 00 00 00 00
  can0  652   [8]  94 00 00 00 00 00 00 00
  can0  652   [8]  95 00 00 00 00 00 00 00
  can0  652   [8]  96 00 00 00 00 00 00 00
  can0  652   [8]  97 00 00 00 00 00 00 00
  can0  652   [8]  98 00 00 00 00 00 00 00
  can0  652   [8]  99 00 00 00 00 00 00 00
  can0  652   [8]  9A 00 00 00 00 00 00 00
  can0  652   [8]  9B 00 00 00 00 00 00 00
  can0  652   [8]  9C 00 00 00 00 00 00 00
  can0  652   [8]  9D 00 00 00 00 00 00 00
  can0  652   [8]  9E 00 00 00 00 00 00 00
  can0  652   [8]  9F 00 00 00 00 00 00 00
  can0  652   [8]  A0 00 00 00 00 00 00 00
  can0  652   [8]  A1 00 00 00 00 00 00 00
  can0  652   [8]  A2 00 00 00 00 00 00 00
  can0  652   [8]  A3 00 00 00 00 00 00 00
  can0  652   [8]  A4 00 00 00 00 00 00 00
  can0  652   [8]  A5 00 00 00 00 00 00 00
  can0  652   [8]  A6 00 00 00 00 00 00 00
  can0  652   [8]  A7 00 00 00 00 00 00 00
  can0  652   [8]  A8 00 00 00 00 00 00 00
  can0  652   [8]  A9 00 00 00 00 00 00 00
  can0  652   [8]  AA 00 00 00 00 00 00 00
  can0  652   [8]  AB 00 00 00 00 00 00 00
  can0  652   [8]  AC 00 00 00 00 00 00 00
  can0  652   [8]  AD 00 00 00 00 00 00 00
  can0  652   [8]  AE 00 00 00 00 00 00 00
  can0  652   [8]  AF 00 00 00 00 00 00 00
  can0  652   [8]  B0 00 00 00 00 00 00 00
  can0  652   [8]  B1 00 00 00 00 00 00 00
  can0  652   [8]  B2 00 00 00 00 00 00 00
  can0  652   [8]  B3 00 00 00 00 00 00 00
  can0  652   [8]  B4 00 00 00 00 00 00 00
  can0  652   [8]  B5 00 00 00 00 00 00 00
  can0  652   [8]  B6 00 00 00 00 00 00 00
  can0  652   [8]  B7 00 00 00 00 00 00 00
  can0  652   [8]  B8 00 00 00 00 00 00 00
  can0  652   [8]  B9 00 00 00 00 00 00 00
  can0  652   [8]  BA 00 00 00 00 00 00 00
  can0  652   [8]  BB 00 00 00 00 00 00 00
  can0  652   [8]  BC 00 00 00 00 00 00 00
  can0  652   [8]  BD 00 00 00 00 00 00 00
  can0  652   [8]  BE 00 00 00 00 00 00 00
  can0  652   [8]  BF 00 00 00 00 00 00 00
  can0  652   [8]  C0 00 00 00 00 00 00 00
  can0  652   [8]  C1 00 00 00 00 00 00 00
  can0  652   [8]  C2 00 00 00 00 00 00 00
  can0  652   [8]  C3 00 00 00 00 00 00 00
  can0  652   [8]  C4 00 00 00 00 00 00 00
  can0  652   [8]  C5 00 00 00 00 00 00 00
  can0  652   [8]  C6 00 00 00 00 00 00 00
  can0  652   [8]  C7 00 00 00 00 00 00 00
  can0  652   [8]  C8 00 00 00 00 00 00 00
  can0  652   [8]  C9 00 00 00 00 00 00 00
  can0  652   [8]  CA 00 00 00 00 00 00 00
  can0  652   [8]  CB 00 00 00 00 00 00 00
  can0  652   [8]  CC 00 00 00 00 00 00 00
  can0  652   [8]  CD 00 00 00 00 00 00 00
  can0  652   [8]  CE 00 00 00 00 00 00 00
  can0  652   [8]  CF 00 00 00 00 00 00 00
  can0  652   [8]  D0 00 00 00 00 00 00 00
  can0  652   [8]  D1 00 00 00 00 00 00 00
  can0  652   [8]  D2 00 00 00 00 00 00 00
  can0  652   [8]  D3 00 00 00 00 00 00 00
  can0  652   [8]  D4 00 00 00 00 00 00 00
  can0  652   [8]  D5 00 00 00 00 00 00 00
  can0  652   [8]  D6 00 00 00 00 00 00 00
  can0  652   [8]  D7 00 00 00 00 00 00 00
  can0  652   [8]  D8 00 00 00 00 00 00 00
  can0  652   [8]  D9 00 00 00 00 00 00 00
  can0  652   [8]  DA 00 00 00 00 00 00 00
  can0  652   [8]  DB 00 00 00 00 00 00 00
  can0  652   [8]  DC 00 00 00 00 00 00 00
  can0  652   [8]  DD 00 00 00 00 00 00 00
  can0  652   [8]  DE 00 00 00 00 00 00 00
  can0  652   [8]  DF 00 00 00 00 00 00 00
  can0  652   [8]  E0 00 00 00 00 00 00 00
  can0  652   [8]  E1 00 00 00 00 00 00 00
  can0  652   [8]  E2 00 00 00 00 00 00 00
  can0  652   [8]  E3 00 00 00 00 00 00 00
  can0  652   [8]  E4 00 00 00 00 00 00 00
  can0  652   [8]  E5 00 00 00 00 00 00 00
  can0  652   [8]  E6 00 00 00 00 00 00 00
  can0  652   [8]  E7 00 00 00 00 00 00 00
  can0  652   [8]  E8 00 00 00 00 00 00 00
  can0  652   [8]  E9 00 00 00 00 00 00 00
  can0  652   [8]  EA 00 00 00 00 00 00 00
  can0  652   [8]  EB 00 00 00 00 00 00 00
  can0  652   [8]  EC 00 00 00 00 00 00 00
  can0  652   [8]  ED 00 00 00 00 00 00 00
  can0  652   [8]  EE 00 00 00 00 00 00 00
  can0  652   [8]  EF 00 00 00 00 00 00 00
  can0  652   [8]  F0 00 00 00 00 00 00 00
  can0  652   [8]  F1 00 00 00 00 00 00 00
  can0  652   [8]  F2 00 00 00 00 00 00 00
  can0  652   [8]  F3 00 00 00 00 00 00 00
  can0  652   [8]  F4 00 00 00 00 00 00 00
  can0  652   [8]  F5 00 00 00 00 00 00 00
  can0  652   [8]  F6 00 00 00 00 00 00 00
  can0  652   [8]  F7 00 00 00 00 00 00 00
  can0  652   [8]  F8 00 00 00 00 00 00 00
  can0  652   [8]  F9 00 00 00 00 00 00 00
  can0  652   [8]  FA 00 00 00 00 00 00 00
  can0  652   [8]  FB 00 00 00 00 00 00 00
  can0  652   [8]  FC 00 00 00 00 00 00 00
  can0  652   [8]  FD 00 00 00 00 00 00 00
  can0  652   [8]  FE 00 00 00 00 00 00 00
  can0  652   [8]  FF 00 00 00 00 00 00 00