  can0  652   [8]  00 00 00 00 00 00 00 00
  can0  652   [8]  01 00 00 00 00 00 00 00
  can0  652   [8]  02 00 00 00 00 00 00 00
  can0  652   [8]  03 00 00 00 00 00 00 00
  can0  652   [8]  04 00 00 00 00 00 00 00
  can0  652   [8]  05 00 00 00 00 00 00 00
  can0  652   [8]  06 00 00 00 00 00 00 00
  can0  652   [8]  07 00 00 00 00 00 00 00
  can0  652   [8]  08 00 00 00 00 00 00 00
  can0  652   [8]  09 00 00 00 00 00 00 00
  can0  652   [8]  0A 00 00 00 00 00 00 00
  can0  652   [8]  0B 00 00 00 00 00 00 00
  can0  652   [8]  0C 00 00 00 00 00 00 00
  can0  652   [8]  0D 00 00 00 00 00 00 00
  can0  652   [8]  0E 00 00 00 00 00 00 00
  can0  652   [8]  0F 00 00 00 00 00 00 00
  can0  652   [8]  10 00 00 00 00 00 00 00
  can0  652   [8]  11 00 00 00 00 00 00 00
  can0  652   [8]  12 00 00 00 00 00 00 00
  can0  652   [8]  13 00 00 00 00 00 00 00
  can0  652   [8]  14 00 00 00 00 00 00 00
  can0  652   [8]  15 00 00 00 00 00 00 00
  can0  652   [8]  16 00 00 00 00 00 00 00
  can0  652   [8]  17 00 00 00 00 00 00 00
  can0  652   [8]  18 00 00 00 00 00 00 00
  can0  652   [8]  19 00 00 00 00 00 00 00
  can0  652   [8]  1A 00 00 00 00 00 00 00
  can0  652   [8]  1B 00 00 00 00 00 00 00
  can0  652   [8]  1C 00 00 00 00 00 00 00
  can0  652   [8]  1D 00 00 00 00 00 00 00
  can0  652   [8]  1E 00 00 00 00 00 00 00
  can0  652   [8]  1F 00 00 00 00 00 00 00
  can0  652   [8]  20 00 00 00 00 00 00 00
  can0  652   [8]  21 00 00 00 00 00 00 00
  can0  652   [8]  22 00 00 00 00 00 00 00
  can0  652   [8]  23 00 00 00 00 00 00 00
  can0  652   [8]  24 00 00 00 00 00 00 00
  can0  652   [8]  25 00 00 00 00 00 00 00
  can0  652   [8]  26 00 00 00 00 00 00 00
  can0  652   [8]  27 00 00 00 00 00 00 00
  can0  652   [8]  28 00 00 00 00 00 00 00
  can0  652   [8]  29 00 00 00 00 00 00 00
  can0  652   [8]  2A 00 00 00 00 00 00 00
  can0  652   [8]  2B 00 00 00 00 00 00 00
  can0  652   [8]  2C 00 00 00 00 00 00 00
  can0  652   [8]  2D 00 00 00 00 00 00 00
  can0  652   [8]  2E 00 00 00 00 00 00 00
  can0  652   [8]  2F 00 00 00 00 00 00 00
  can0  652   [8]  30 00 00 00 00 00 00 00
  can0  652   [8]  31 00 00 00 00 00 00 00
  can0  652   [8]  32 00 00 00 00 00 00 00
  can0  652   [8]  33 00 00 00 00 00 00 00
  can0  652   [8]  34 00 00 00 00 00 00 00
  can0  652   [8]  35 00 00 00 00 00 00 00
  can0  652   [8]  36 00 00 00 00 00 00 00
  can0  652   [8]  37 00 00 00 00 00 00 00
  can0  652   [8]  38 00 00 00 00 00 00 00
  can0  652   [8]  39 00 00 00 00 00 00 00
  can0  652   [8]  3A 00 00 00 00 00 00 00
  can0  652   [8]  3B 00 00 00 00 00 00 00
  can0  652   [8]  3C 00 00 00 00 00 00 00
  can0  652   [8]  3D 00 00 00 00 00 00 00
  can0  652   [8]  3E 00 00 00 00 00 00 00
  can0  652   [8]  3F 00 00 00 00 00 00 00
  can0  652   [8]  40 00 00 00 00 00 00 00
  can0  652   [8]  41 00 00 00 00 00 00 00
  can0  652   [8]  42 00 00 00 00 00 00 00
  can0  652   [8]  43 00 00 00 00 00 00 00
  can0  652   [8]  44 00 00 00 00 00 00 00
  can0  652   [8]  45 00 00 00 00 00 00 00
  can0  652   [8]  46 00 00 00 00 00 00 00
  can0  652   [8]  47 00 00 00 00 00 00 00
  can0  652   [8]  48 00 00 00 00 00 00 00
  can0  652   [8]  49 00 00 00 00 00 00 00
  can0  652   [8]  4A 00 00 00 00 00 00 00
  can0  652   [8]  4B 00 00 00 00 00 00 00
  can0  652   [8]  4C 00 00 00 00 00 00 00
  can0  652   [8]  4D 00 00 00 00 00 00 00
  can0  652   [8]  4E 00 00 00 00 00 00 00
  can0  652   [8]  4F 00 00 00 00 00 00 00
  can0  652   [8]  50 00 00 00 00 00 00 00
  can0  652   [8]  51 00 00 00 00 00 00 00
  can0  652   [8]  52 00 00 00 00 00 00 00
  can0  652   [8]  53 00 00 00 00 00 00 00
  can0  652   [8]  54 00 00 00 00 00 00 00
  can0  652   [8]  55 00 00 00 00 00 00 00
  can0  652   [8]  56 00 00 00 00 00 00 00
  can0  652   [8]  57 00 00 00 00 00 00 00
  can0  652   [8]  58 00 00 00 00 00 00 00
  can0  652   [8]  59 00 00 00 00 00 00 00
  can0  652   [8]  5A 00 00 00 00 00 00 00
  can0  652   [8]  5B 00 00 00 00 00 00 00
  can0  652   [8]  5C 00 00 00 00 00 00 00
  can0  652   [8]  5D 00 00 00 00 00 00 00
  can0  652   [8]  5E 00 00 00 00 00 00 00
  can0  652   [8]  5F 00 00 00 00 00 00 00
  can0  652   [8]  60 00 00 00 00 00 00 00
  can0  652   [8]  61 00 00 00 00 00 00 00
  can0  652   [8]  62 00 00 00 00 00 00 00
  can0  652   [8]  63 00 00 00 00 00 00 00
  can0  652   [8]  64 00 00 00 00 00 00 00
  can0  652   [8]  65 00 00 00 00 00 00 00
  can0  652   [8]  66 00 00 00 00 00 00 00
  can0  652   [8]  67 00 00 00 00 00 00 00
  can0  652   [8]  68 00 00 00 00 00 00 00
  can0  652   [8]  69 00 00 00 00 00 00 00
  can0  652   [8]  6A 00 00 00 00 00 00 00
  can0  652   [8]  6B 00 00 00 00 00 00 00
  can0  652   [8]  6C 00 00 00 00 00 00 00
  can0  652   [8]  6D 00 00 00 00 00 00 00
  can0  652   [8]  6E 00 00 00 00 00 00 00
  can0  652   [8]  6F 00 00 00 00 00 00 00
  can0  652   [8]  70 00 00 00 00 00 00 00
  can0  652   [8]  71 00 00 00 00 00 00 00
  can0  652   [8]  72 00 00 00 00 00 00 00
  can0  652   [8]  73 00 00 00 00 00 00 00
  can0  652   [8]  74 00 00 00 00 00 00 00
  can0  652   [8]  75 00 00 00 00 00 00 00
  can0  652   [8]  76 00 00 00 00 00 00 00
  can0  652   [8]  77 00 00 00 00 00 00 00
  can0  652   [8]  78 00 00 00 00 00 00 00
  can0  652   [8]  79 00 00 00 00 00 00 00
  can0  652   [8]  7A 00 00 00 00 00 00 00
  can0  652   [8]  7B 00 00 00 00 00 00 00
  can0  652   [8]  7C 00 00 00 00 00 00 00
  can0  652   [8]  7D 00 00 00 00 00 00 00
  can0  652   [8]  7E 00 00 00 00 00 00 00
  can0  652   [8]  7F 00 00 00 00 00 00 00
  can0  652   [8]  80 00 00 00 00 00 00 00
  can0  652   [8]  81 00 00 00 00 00 00 00
  can0  652   [8]  82 00 00 00 00 00 00 00
  can0  652   [8]  83 00 00 00 00 00 00 00
  can0  652   [8]  84 00 00 00 00 00 00 00
  can0  652   [8]  85 00 00 00 00 00 00 00
  can0  652   [8]  86 00 00 00 00 00 00 00
  can0  652   [8]  87 00 00 00 00 00 00 00
  can0  652   [8]  88 00 00 00 00 00 00 00
  can0  652   [8]  89 00 00 00 00 00 00 00
  can0  652   [8]  8A 00 00 00 00 00 00 00
  can0  652   [8]  8B 00 00 00 00 00 00 00
  can0  652   [8]  8C 00 00 00 00 00 00 00
  can0  652   [8]  8D 00 00 00 00 00 00 00
  can0  652   [8]  8E 00 00 00 00 00 00 00
  can0  652   [8]  8F 00 00 00 00 00 00 00
  can0  652   [8]  90 00 00 00 00 00 00 00
  can0  652   [8]  91 00 00 00 00 00 00 00
  can0  652   [8]  92 00 00 00 00 00 00 00
  can0  652   [8]  93 00 00 00 00 00 00 00
  can0  652   [8]  94 00 00 00 00 00 00 00
  can0  652   [8]  95 00 00 00 00 00 00 00
  can0  652   [8]  96 00 00 00 00 00 00 00
  can0  652   [8]  97 00 00 00 00 00 00 00
  can0  652   [8]  98 00 00 00 00 00 00 00
  can0  652   [8]  99 00 00 00 00 00 00 00
  can0  652   [8]  9A 00 00 00 00 00 00 00
  can0  652   [8]  9B 00 00 00 00 00 00 00
  can0  652   [8]  9C 00 00 00 00 00 00 00
  can0  652   [8]  9D 00 00 00 00 00 00 00
  can0  652   [8]  9E 00 00 00 00 00 00 00
  can0  652   [8]  9F 00 00 00 00 00 00 00
  can0  652   [8]  A0 00 00 00 00 00 00 00
  can0  652   [8]  A1 00 00 00 00 00 00 00
  can0  652   [8]  A2 00 00 00 00 00 00 00
  can0  652   [8]  A3 00 00 00 00 00 00 00
  can0  652   [8]  A4 00 00 00 00 00 00 00
  can0  652   [8]  A5 00 00 00 00 00 00 00
  can0  652   [8]  A6 00 00 00 00 00 00 00
  can0  652   [8]  A7 00 00 00 00 00 00 00
  can0  652   [8]  A8 00 00 00 00 00 00 00
  can0  652   [8]  A9 00 00 00 00 00 00 00
  can0  652   [8]  AA 00 00 00 00 00 00 00
  can0  652   [8]  AB 00 00 00 00 00 00 00
  can0  652   [8]  AC 00 00 00 00 00 00 00
  can0  652   [8]  AD 00 00 00 00 00 00 00
  can0  652   [8]  AE 00 00 00 00 00 00 00
  can0  652   [8]  AF 00 00 00 00 00 00 00
  can0  652   [8]  B0 00 00 00 00 00 00 00
  can0  652   [8]  B1 00 00 00 00 00 00 00
  can0  652   [8]  B2 00 00 00 00 00 00 00
  can0  652   [8]  B3 00 00 00 00 00 00 00
  can0  652   [8]  B4 00 00 00 00 00 00 00
  can0  652   [8]  B5 00 00 00 00 00 00 00
  can0  652   [8]  B6 00 00 00 00 00 00 00
  can0  652   [8]  B7 00 00 00 00 00 00 00
  can0  652   [8]  B8 00 00 00 00 00 00 00
  can0  652   [8]  B9 00 00 00 00 00 00 00
  can0  652   [8]  BA 00 00 00 00 00 00 00
  can0  652   [8]  BB 00 00 00 00 00 00 00
  can0  652   [8]  BC 00 00 00 00 00 00 00
  can0  652   [8]  BD 00 00 00 00 00 00 00
  can0  652   [8]  BE 00 00 00 00 00 00 00
  can0  652   [8]  BF 00 00 00 00 00 00 00
  can0  652   [8]  C0 00 00 00 00 00 00 00
  can0  652   [8]  C1 00 00 00 00 00 00 00
  can0  652   [8]  C2 00 00 00 00 00 00 00
  can0  652   [8]  C3 00 00 00 00 00 00 00
  can0  652   [8]  C4 00 00 00 00 00 00 00
  can0  652   [8]  C5 00 00 00 00 00 00 00
  can0  652   [8]  C6 00 00 00 00 00 00 00
  can0  652   [8]  C7 00 00 00 00 00 00 00
  can0  652   [8]  C8 00 00 00 00 00 00 00
  can0  652   [8]  C9 00 00 00 00 00 00 00
  can0  652   [8]  CA 00 00 00 00 00 00 00
  can0  652   [8]  CB 00 00 00 00 00 00 00
  can0  652   [8]  CC 00 00 00 00 00 00 00
  can0  652   [8]  CD 00 00 00 00 00 00 00
  can0  652   [8]  CE 00 00 00 00 00 00 00
  can0  652   [8]  CF 00 00 00 00 00 00 00
  can0  652   [8]  D0 00 00 00 00 00 00 00
  can0  652   [8]  D1 00 00 00 00 00 00 00
  can0  652   [8]  D2 00 00 00 00 00 00 00
  can0  652   [8]  D3 00 00 00 00 00 00 00
  can0  652   [8]  D4 00 00 00 00 00 00 00
  can0  652   [8]  D5 00 00 00 00 00 00 00
  can0  652   [8]  D6 00 00 00 00 00 00 00
  can0  652   [8]  D7 00 00 00 00 00 00 00
  can0  652   [8]  D8 00 00 00 00 00 00 00
  can0  652   [8]  D9 00 00 00 00 00 00 00
  can0  652   [8]  DA 00 00 00 00 00 00 00
  can0  652   [8]  DB 00 00 00 00 00 00 00
  can0  652   [8]  DC 00 00 00 00 00 00 00
  can0  652   [8]  DD 00 00 00 00 00 00 00
  can0  652   [8]  DE 00 00 00 00 00 00 00
  can0  652   [8]  DF 00 00 00 00 00 00 00
  can0  652   [8]  E0 00 00 00 00 00 00 00
  can0  652   [8]  E1 00 00 00 00 00 00 00
  can0  652   [8]  E2 00 00 00 00 00 00 00
  can0  652   [8]  E3 00 00 00 00 00 00 00
  can0  652   [8]  E4 00 00 00 00 00 00 00
  can0  652   [8]  E5 00 00 00 00 00 00 00
  can0  652   [8]  E6 00 00 00 00 00 00 00
  can0  652   [8]  E7 00 00 00 00 00 00 00
  can0  652   [8]  E8 00 00 00 00 00 00 00
  can0  652   [8]  E9 00 00 00 00 00 00 00
  can0  652   [8]  EA 00 00 00 00 00 00 00
  can0  652   [8]  EB 00 00 00 00 00 00 00
  can0  652   [8]  EC 00 00 00 00 00 00 00
  can0  652   [8]  ED 00 00 00 00 00 00 00
  can0  652   [8]  EE 00 00 00 00 00 00 00
  can0  652   [8]  EF 00 00 00 00 00 00 00
  can0  652   [8]  F0 00 00 00 00 00 00 00
  can0  652   [8]  F1 00 00 00 00 00 00 00
  can0  652   [8]  F2 00 00 00 00 00 00 00
  can0  652   [8]  F3 00 00 00 00 00 00 00
  can0  652   [8]  F4 00 00 00 00 00 00 00
  can0  652   [8]  F5 00 00 00 00 00 00 00
  can0  652   [8]  F6 00 00 00 00 00 00 00
  can0  652   [8]  F7 00 00 00 00 00 00 00
  can0  652   [8]  F8 00 00 00 00 00 00 00
  can0  652   [8]  F9 00 00 00 00 00 00 00
  can0  652   [8]  FA 00 00 00 00 00 00 00
  can0  652   [8]  FB 00 00 00 00 00 00 00
  can0  652   [8]  FC 00 00 00 00 00 00 00
  can0  652   [8]  FD 00 00 00 00 00 00 00
  can0  652   [8]  FE 00 00 00 00 00 00 00
  can0  652   [8]  FF 00 00 00 00 00 00 00
  can0  652   [8]  00 01 00 00 00 00 00 00
  can0  652   [8]  01 01 00 00 00 00 00 00
  can0  652   [8]  02 01 00 00 00 00 00 00
  can0  652   [8]  03 01 00 00 00 00 00 00
  can0  652   [8]  04 01 00 00 00 00 00 00
  can0  652   [8]  05 01 00 00 00 00 00 00
  can0  652   [8]  06 01 00 00 00 00 00 00
  can0  652   [8]  07 01 00 00 00 00 00 00
  can0  652   [8]  08 01 00 00 00 00 00 00
  can0  652   [8]  09 01 00 00 00 00 00 00
  can0  652   [8]  0A 01 00 00 00 00 00 00
  can0  652   [8]  0B 01 00 00 00 00 00 00
  can0  652   [8]  0C 01 00 00 00 00 00 00
  can0  652   [8]  0D 01 00 00 00 00 00 00
  can0  652   [8]  0E 01 00 00 00 00 00 00
  can0  652   [8]  0F 01 00 00 00 00 00 00
  can0  652   [8]  10 01 00 00 00 00 00 00
  can0  652   [8]  11 01 00 00 00 00 00 00
  can0  652   [8]  12 01 00 00 00 00 00 00
  can0  652   [8]  13 01 00 00 00 00 00 00
  can0  652   [8]  14 01 00 00 00 00 00 00
  can0  652   [8]  15 01 00 00 00 00 00 00
  can0  652   [8]  16 01 00 00 00 00 00 00
  can0  652   [8]  17 01 00 00 00 00 00 00
  can0  652   [8]  18 01 00 00 00 00 00 00
  can0  652   [8]  19 01 00 00 00 00 00 00
  can0  652   [8]  1A 01 00 00 00 00 00 00
  can0  652   [8]  1B 01 00 00 00 00 00 00
  can0  652   [8]  1C 01 00 00 00 00 00 00
  can0  652   [8]  1D 01 00 00 00 00 00 00
  can0  652   [8]  1E 01 00 00 00 00 00 00
  can0  652   [8]  1F 01 00 00 00 00 00 00
  can0  652   [8]  20 01 00 00 00 00 00 00
  can0  652   [8]  21 01 00 00 00 00 00 00
  can0  652   [8]  22 01 00 00 00 00 00 00
  can0  652   [8]  23 01 00 00 00 00 00 00
  can0  652   [8]  24 01 00 00 00 00 00 00
  can0  652   [8]  25 01 00 00 00 00 00 00
  can0  652   [8]  26 01 00 00 00 00 00 00
  can0  652   [8]  27 01 00 00 00 00 00 00
  can0  652   [8]  28 01 00 00 00 00 00 00
  can0  652   [8]  29 01 00 00 00 00 00 00
  can0  652   [8]  2A 01 00 00 00 00 00 00
  can0  652   [8]  2B 01 00 00 00 00 00 00
  can0  652   [8]  2C 01 00 00 00 00 00 00
  can0  652   [8]  2D 01 00 00 00 00 00 00
  can0  652   [8]  2E 01 00 00 00 00 00 00
  can0  652   [8]  2F 01 00 00 00 00 00 00
  can0  652   [8]  30 01 00 00 00 00 00 00
  can0  652   [8]  31 01 00 00 00 00 00 00
  can0  652   [8]  32 01 00 00 00 00 00 00
  can0  652   [8]  33 01 00 00 00 00 00 00
  can0  652   [8]  34 01 00 00 00 00 00 00
  can0  652   [8]  35 01 00 00 00 00 00 00
  can0  652   [8]  36 01 00 00 00 00 00 00
  can0  652   [8]  37 01 00 00 00 00 00 00
  can0  652   [8]  38 01 00 00 00 00 00 00
  can0  652   [8]  39 01 00 00 00 00 00 00
  can0  652   [8]  3A 01 00 00 00 00 00 00
  can0  652   [8]  3B 01 00 00 00 00 00 00
  can0  652   [8]  3C 01 00 00 00 00 00 00
  can0  652   [8]  3D 01 00 00 00 00 00 00
  can0  652   [8]  3E 01 00 00 00 00 00 00
  can0  652   [8]  3F 01 00 00 00 00 00 00
  can0  652   [8]  40 01 00 00 00 00 00 00
  can0  652   [8]  41 01 00 00 00 00 00 00
  can0  652   [8]  42 01 00 00 00 00 00 00
  can0  652   [8]  43 01 00 00 00 00 00 00
  can0  652   [8]  44 01 00 00 00 00 00 00
  can0  652   [8]  45 01 00 00 00 00 00 00
  can0  652   [8]  46 01 00 00 00 00 00 00
  can0  652   [8]  47 01 00 00 00 00 00 00
  can0  652   [8]  48 01 00 00 00 00 00 00
  can0  652   [8]  49 01 00 00 00 00 00 00
  can0  652   [8]  4A 01 00 00 00 00 00 00
  can0  652   [8]  4B 01 00 00 00 00 00 00
  can0  652   [8]  4C 01 00 00 00 00 00 00
  can0  652   [8]  4D 01 00 00 00 00 00 00
  can0  652   [8]  4E 01 00 00 00 00 00 00
  can0  652   [8]  4F 01 00 00 00 00 00 00
  can0  652   [8]  50 01 00 00 00 00 00 00
  can0  652   [8]  51 01 00 00 00 00 00 00
  can0  652   [8]  52 01 00 00 00 00 00 00
  can0  652   [8]  53 01 00 00 00 00 00 00
  can0  652   [8]  54 01 00 00 00 00 00 00
  can0  652   [8]  55 01 00 00 00 00 00 00
  can0  652   [8]  56 01 00 00 00 00 00 00
  can0  652   [8]  57 01 00 00 00 00 00 00
  can0  652   [8]  58 01 00 00 00 00 00 00
  can0  652   [8]  59 01 00 00 00 00 00 00
  can0  652   [8]  5A 01 00 00 00 00 00 00
  can0  652   [8]  5B 01 00 00 00 00 00 00
  can0  652   [8]  5C 01 00 00 00 00 00 00
  can0  652   [8]  5D 01 00 00 00 00 00 00
  can0  652   [8]  5E 01 00 00 00 00 00 00
  can0  652   [8]  5F 01 00 00 00 00 00 00
  can0  652   [8]  60 01 00 00 00 00 00 00
  can0  652   [8]  61 01 00 00 00 00 00 00
  can0  652   [8]  62 01 00 00 00 00 00 00
  can0  652   [8]  63 01 00 00 00 00 00 00
  can0  652   [8]  64 01 00 00 00 00 00 00
  can0  652   [8]  65 01 00 00 00 00 00 00
  can0  652   [8]  66 01 00 00 00 00 00 00
  can0  652   [8]  67 01 00 00 00 00 00 00
  can0  652   [8]  68 01 00 00 00 00 00 00
  can0  652   [8]  69 01 00 00 00 00 00 00
  can0  652   [8]  6A 01 00 00 00 00 00 00
  can0  652   [8]  6B 01 00 00 00 00 00 00
  can0  652   [8]  6C 01 00 00 00 00 00 00
  can0  652   [8]  6D 01 00 00 00 00 00 00
  can0  652   [8]  6E 01 00 00 00 00 00 00
  can0  652   [8]  6F 01 00 00 00 00 00 00
  can0  652   [8]  70 01 00 00 00 00 00 00
  can0  652   [8]  71 01 00 00 00 00 00 00
  can0  652   [8]  72 01 00 00 00 00 00 00
  can0  652   [8]  73 01 00 00 00 00 00 00
  can0  652   [8]  74 01 00 00 00 00 00 00
  can0  652   [8]  75 01 00 00 00 00 00 00
  can0  652   [8]  76 01 00 00 00 00 00 00
  can0  652   [8]  77 01 00 00 00 00 00 00
  can0  652   [8]  78 01 00 00 00 00 00 00
  can0  652   [8]  79 01 00 00 00 00 00 00
  can0  652   [8]  7A 01 00 00 00 00 00 00
  can0  652   [8]  7B 01 00 00 00 00 00 00
  can0  652   [8]  7C 01 00 00 00 00 00 00
  can0  652   [8]  7D 01 00 00 00 00 00 00
  can0  652   [8]  7E 01 00 00 00 00 00 00
  can0  652   [8]  7F 01 00 00 00 00 00 00
  can0  652   [8]  80 01 00 00 00 00 00 00
  can0  652   [8]  81 01 00 00 00 00 00 00
  can0  652   [8]  82 01 00 00 00 00 00 00
  can0  652   [8]  83 01 00 00 00 00 00 00
  can0  652   [8]  84 01 00 00 00 00 00 00
  can0  652   [8]  85 01 00 00 00 00 00 00
  can0  652   [8]  86 01 00 00 00 00 00 00
  can0  652   [8]  87 01 00 00 00 00 00 00
  can0  652   [8]  88 01 00 00 00 00 00 00
  can0  652   [8]  89 01 00 00 00 00 00 00
  can0  652   [8]  8A 01 00 00 00 00 00 00
  can0  652   [8]  8B 01 00 00 00 00 00 00
  can0  652   [8]  8C 01 00 00 00 00 00 00
  can0  652   [8]  8D 01 00 00 00 00 00 00
  can0  652   [8]  8E 01 00 00 00 00 00 00
  can0  652   [8]  8F 01 00 00 00 00 00 00
  can0  652   [8]  90 01 00 00 00 00 00 00
  can0  652   [8]  91 01 00 00 00 00 00 00
  can0  652   [8]  92 01 00 00 00 00 00 00
  can0  652   [8]  93 01 00 00 00 00 00 00
  can0  652   [8]  94 01 00 00 00 00 00 00
  can0  652   [8]  95 01 00 00 00 00 00 00
  can0  652   [8]  96 01 00 00 00 00 00 00
  can0  652   [8]  97 01 00 00 00 00 00 00
  can0  652   [8]  98 01 00 00 00 00 00 00
  can0  652   [8]  99 01 00 00 00 00 00 00
  can0  652   [8]  9A 01 00 00 00 00 00 00
  can0  652   [8]  9B 01 00 00 00 00 00 00
  can0  652   [8]  9C 01 00 00 00 00 00 00
  can0  652   [8]  9D 01 00 00 00 00 00 00
  can0  652   [8]  9E 01 00 00 00 00 00 00
  can0  652   [8]  9F 01 00 00 00 00 00 00
  can0  652   [8]  A0 01 00 00 00 00 00 00
  can0  652   [8]  A1 01 00 00 00 00 00 00
  can0  652   [8]  A2 01 00 00 00 00 00 00
  can0  652   [8]  A3 01 00 00 00 00 00 00
  can0  652   [8]  A4 01 00 00 00 00 00 00
  can0  652   [8]  A5 01 00 00 00 00 00 00
  can0  652   [8]  A6 01 00 00 00 00 00 00
  can0  652   [8]  A7 01 00 00 00 00 00 00
  can0  652   [8]  A8 01 00 00 00 00 00 00
  can0  652   [8]  A9 01 00 00 00 00 00 00
  can0  652   [8]  AA 01 00 00 00 00 00 00
  can0  652   [8]  AB 01 00 00 00 00 00 00
  can0  652   [8]  AC 01 00 00 00 00 00 00
  can0  652   [8]  AD 01 00 00 00 00 00 00
  can0  652   [8]  AE 01 00 00 00 00 00 00
  can0  652   [8]  AF 01 00 00 00 00 00 00
  can0  652   [8]  B0 01 00 00 00 00 00 00
  can0  652   [8]  B1 01 00 00 00 00 00 00
  can0  652   [8]  B2 01 00 00 00 00 00 00
  can0  652   [8]  B3 01 00 00 00 00 00 00
  can0  652   [8]  B4 01 00 00 00 00 00 00
  can0  652   [8]  B5 01 00 00 00 00 00 00
  can0  652   [8]  B6 01 00 00 00 00 00 00
  can0  652   [8]  B7 01 00 00 00 00 00 00
  can0  652   [8]  B8 01 00 00 00 00 00 00
  can0  652   [8]  B9 01 00 00 00 00 00 00
  can0  652   [8]  BA 01 00 00 00 00 00 00
  can0  652   [8]  BB 01 00 00 00 00 00 00
  can0  652   [8]  BC 01 00 00 00 00 00 00
  can0  652   [8]  BD 01 00 00 00 00 00 00
  can0  652   [8]  BE 01 00 00 00 00 00 00
  can0  652   [8]  BF 01 00 00 00 00 00 00
  can0  652   [8]  C0 01 00 00 00 00 00 00
  can0  652   [8]  C1 01 00 00 00 00 00 00
  can0  652   [8]  C2 01 00 00 00 00 00 00
  can0  652   [8]  C3 01 00 00 00 00 00 00
  can0  652   [8]  C4 01 00 00 00 00 00 00
  can0  652   [8]  C5 01 00 00 00 00 00 00
  can0  652   [8]  C6 01 00 00 00 00 00 00
  can0  652   [8]  C7 01 00 00 00 00 00 00
  can0  652   [8]  C8 01 00 00 00 00 00 00
  can0  652   [8]  C9 01 00 00 00 00 00 00
  can0  652   [8]  CA 01 00 00 00 00 00 00
  can0  652   [8]  CB 01 00 00 00 00 00 00
  can0  652   [8]  CC 01 00 00 00 00 00 00
  can0  652   [8]  CD 01 00 00 00 00 00 00
  can0  652   [8]  CE 01 00 00 00 00 00 00
  can0  652   [8]  CF 01 00 00 00 00 00 00
  can0  652   [8]  D0 01 00 00 00 00 00 00
  can0  652   [8]  D1 01 00 00 00 00 00 00
  can0  652   [8]  D2 01 00 00 00 00 00 00
  can0  652   [8]  D3 01 00 00 00 00 00 00
  can0  652   [8]  D4 01 00 00 00 00 00 00
  can0  652   [8]  D5 01 00 00 00 00 00 00
  can0  652   [8]  D6 01 00 00 00 00 00 00
  can0  652   [8]  D7 01 00 00 00 00 00 00
  can0  652   [8]  D8 01 00 00 00 00 00 00
  can0  652   [8]  D9 01 00 00 00 00 00 00
  can0  652   [8]  DA 01 00 00 00 00 00 00
  can0  652   [8]  DB 01 00 00 00 00 00 00
  can0  652   [8]  DC 01 00 00 00 00 00 00
  can0  652   [8]  DD 01 00 00 00 00 00 00
  can0  652   [8]  DE 01 00 00 00 00 00 00
  can0  652   [8]  DF 01 00 00 00 00 00 00
  can0  652   [8]  E0 01 00 00 00 00 00 00
  can0  652   [8]  E1 01 00 00 00 00 00 00
  can0  652   [8]  E2 01 00 00 00 00 00 00
  can0  652   [8]  E3 01 00 00 00 00 00 00
  can0  652   [8]  E4 01 00 00 00 00 00 00
  can0  652   [8]  E5 01 00 00 00 00 00 00
  can0  652   [8]  E6 01 00 00 00 00 00 00
  can0  652   [8]  E7 01 00 00 00 00 00 00
  can0  652   [8]  E8 01 00 00 00 00 00 00
  can0  652   [8]  E9 01 00 00 00 00 00 00
  can0  652   [8]  EA 01 00 00 00 00 00 00
  can0  652   [8]  EB 01 00 00 00 00 00 00
  can0  652   [8]  EC 01 00 00 00 00 00 00
  can0  652   [8]  ED 01 00 00 00 00 00 00
  can0  652   [8]  EE 01 00 00 00 00 00 00
  can0  652   [8]  EF 01 00 00 00 00 00 00
  can0  652   [8]  F0 01 00 00 00 00 00 00
  can0  652   [8]  F1 01 00 00 00 00 00 00
  can0  652   [8]  F2 01 00 00 00 00 00 00
  can0  652   [8]  F3 01 00 00 00 00 00 00
  can0  652   [8]  F4 01 00 00 00 00 00 00
  can0  652   [8]  F5 01 00 00 00 00 00 00
  can0  652   [8]  F6 01 00 00 00 00 00 00
  can0  652   [8]  F7 01 00 00 00 00 00 00
  can0  652   [8]  F8 01 00 00 00 00 00 00
  can0  652   [8]  F9 01 00 00 00 00 00 00
  can0  652   [8]  FA 01 00 00 00 00 00 00
  can0  652   [8]  FB 01 00 00 00 00 00 00
  can0  652   [8]  FC 01 00 00 00 00 00 00
  can0  652   [8]  FD 01 00 00 00 00 00 00
  can0  652   [8]  FE 01 00 00 00 00 00 00
  can0  652   [8]  FF 01 00 00 00 00 00 00
  can0  652   [8]  00 02 00 00 00 00 00 00
  can0  652   [8]  01 02 00 00 00 00 00 00
  can0  652   [8]  02 02 00 00 00 00 00 00
  can0  652   [8]  03 02 00 00 00 00 00 00
  can0  652   [8]  04 02 00 00 00 00 00 00
  can0  652   [8]  05 02 00 00 00 00 00 00
  can0  652   [8]  06 02 00 00 00 00 00 00
  can0  652   [8]  07 02 00 00 00 00 00 00
  can0  652   [8]  08 02 00 00 00 00 00 00
  can0  652   [8]  09 02 00 00 00 00 00 00
  can0  652   [8]  0A 02 00 00 00 00 00 00
  can0  652   [8]  0B 02 00 00 00 00 00 00
  can0  652   [8]  0C 02 00 00 00 00 00 00
  can0  652   [8]  0D 02 00 00 00 00 00 00
  can0  652   [8]  0E 02 00 00 00 00 00 00
  can0  652   [8]  0F 02 00 00 00 00 00 00
  can0  652   [8]  10 02 00 00 00 00 00 00
  can0  652   [8]  11 02 00 00 00 00 00 00
  can0  652   [8]  12 02 00 00 00 00 00 00
  can0  652   [8]  13 02 00 00 00 00 00 00
  can0  652   [8]  14 02 00 00 00 00 00 00
  can0  652   [8]  15 02 00 00 00 00 00 00
  can0  652   [8]  16 02 00 00 00 00 00 00
  can0  652   [8]  17 02 00 00 00 00 00 00
  can0  652   [8]  18 02 00 00 00 00 00 00
  can0  652   [8]  19 02 00 00 00 00 00 00
  can0  652   [8]  1A 02 00 00 00 00 00 00
  can0  652   [8]  1B 02 00 00 00 00 00 00
  can0  652   [8]  1C 02 00 00 00 00 00 00
  can0  652   [8]  1D 02 00 00 00 00 00 00
  can0  652   [8]  1E 02 00 00 00 00 00 00
  can0  652   [8]  1F 02 00 00 00 00 00 00
  can0  652   [8]  20 02 00 00 00 00 00 00
  can0  652   [8]  21 02 00 00 00 00 00 00
  can0  652   [8]  22 02 00 00 00 00 00 00
  can0  652   [8]  23 02 00 00 00 00 00 00
  can0  652   [8]  24 02 00 00 00 00 00 00
  can0  652   [8]  25 02 00 00 00 00 00 00
  can0  652   [8]  26 02 00 00 00 00 00 00
  can0  652   [8]  27 02 00 00 00 00 00 00
  can0  652   [8]  28 02 00 00 00 00 00 00
  can0  652   [8]  29 02 00 00 00 00 00 00
  can0  652   [8]  2A 02 00 00 00 00 00 00
  can0  652   [8]  2B 02 00 00 00 00 00 00
  can0  652   [8]  2C 02 00 00 00 00 00 00
  can0  652   [8]  2D 02 00 00 00 00 00 00
  can0  652   [8]  2E 02 00 00 00 00 00 00
  can0  652   [8]  2F 02 00 00 00 00 00 00
  can0  652   [8]  30 02 00 00 00 00 00 00
  can0  652   [8]  31 02 00 00 00 00 00 00
  can0  652   [8]  32 02 00 00 00 00 00 00
  can0  652   [8]  33 02 00 00 00 00 00 00
  can0  652   [8]  34 02 00 00 00 00 00 00
  can0  652   [8]  35 02 00 00 00 00 00 00
  can0  652   [8]  36 02 00 00 00 00 00 00
  can0  652   [8]  37 02 00 00 00 00 00 00
  can0  652   [8]  38 02 00 00 00 00 00 00
  can0  652   [8]  39 02 00 00 00 00 00 00
  can0  652   [8]  3A 02 00 00 00 00 00 00
  can0  652   [8]  3B 02 00 00 00 00 00 00
  can0  652   [8]  3C 02 00 00 00 00 00 00
  can0  652   [8]  3D 02 00 00 00 00 00 00
  can0  652   [8]  3E 02 00 00 00 00 00 00
  can0  652   [8]  3F 02 00 00 00 00 00 00
  can0  652   [8]  40 02 00 00 00 00 00 00
  can0  652   [8]  41 02 00 00 00 00 00 00
  can0  652   [8]  42 02 00 00 00 00 00 00
  can0  652   [8]  43 02 00 00 00 00 00 00
  can0  652   [8]  44 02 00 00 00 00 00 00
  can0  652   [8]  45 02 00 00 00 00 00 00
  can0  652   [8]  46 02 00 00 00 00 00 00
  can0  652   [8]  47 02 00 00 00 00 00 00
  can0  652   [8]  48 02 00 00 00 00 00 00
  can0  652   [8]  49 02 00 00 00 00 00 00
  can0  652   [8]  4A 02 00 00 00 00 00 00
  can0  652   [8]  4B 02 00 00 00 00 00 00
  can0  652   [8]  4C 02 00 00 00 00 00 00
  can0  652   [8]  4D 02 00 00 00 00 00 00
  can0  652   [8]  4E 02 00 00 00 00 00 00
  can0  652   [8]  4F 02 00 00 00 00 00 00
  can0  652   [8]  50 02 00 00 00 00 00 00
  can0  652   [8]  51 02 00 00 00 00 00 00
  can0  652   [8]  52 02 00 00 00 00 00 00
  can0  652   [8]  53 02 00 00 00 00 00 00
  can0  652   [8]  54 02 00 00 00 00 00 00
  can0  652   [8]  55 02 00 00 00 00 00 00
  can0  652   [8]  56 02 00 00 00 00 00 00
  can0  652   [8]  57 02 00 00 00 00 00 00
  can0  652   [8]  58 02 00 00 00 00 00 00
  can0  652   [8]  59 02 00 00 00 00 00 00
  can0  652   [8]  5A 02 00 00 00 00 00 00
  can0  652   [8]  5B 02 00 00 00 00 00 00
  can0  652   [8]  5C 02 00 00 00 00 00 00
  can0  652   [8]  5D 02 00 00 00 00 00 00
  can0  652   [8]  5E 02 00 00 00 00 00 00
  can0  652   [8]  5F 02 00 00 00 00 00 00
  can0  652   [8]  60 02 00 00 00 00 00 00
  can0  652   [8]  61 02 00 00 00 00 00 00
  can0  652   [8]  62 02 00 00 00 00 00 00
  can0  652   [8]  63 02 00 00 00 00 00 00
  can0  652   [8]  64 02 00 00 00 00 00 00
  can0  652   [8]  65 02 00 00 00 00 00 00
  can0  652   [8]  66 02 00 00 00 00 00 00
  can0  652   [8]  67 02 00 00 00 00 00 00
  can0  652   [8]  68 02 00 00 00 00 00 00
  can0  652   [8]  69 02 00 00 00 00 00 00
  can0  652   [8]  6A 02 00 00 00 00 00 00
  can0  652   [8]  6B 02 00 00 00 00 00 00
  can0  652   [8]  6C 02 00 00 00 00 00 00
  can0  652   [8]  6D 02 00 00 00 00 00 00
  can0  652   [8]  6E 02 00 00 00 00 00 00
  can0  652   [8]  6F 02 00 00 00 00 00 00
  can0  652   [8]  70 02 00 00 00 00 00 00
  can0  652   [8]  71 02 00 00 00 00 00 00
  can0  652   [8]  72 02 00 00 00 00 00 00
  can0  652   [8]  73 02 00 00 00 00 00 00
  can0  652   [8]  74 02 00 00 00 00 00 00
  can0  652   [8]  75 02 00 00 00 00 00 00
  can0  652   [8]  76 02 00 00 00 00 00 00
  can0  652   [8]  77 02 00 00 00 00 00 00
  can0  652   [8]  78 02 00 00 00 00 00 00
  can0  652   [8]  79 02 00 00 00 00 00 00
  can0  652   [8]  7A 02 00 00 00 00 00 00
  can0  652   [8]  7B 02 00 00 00 00 00 00
  can0  652   [8]  7C 02 00 00 00 00 00 00
  can0  652   [8]  7D 02 00 00 00 00 00 00
  can0  652   [8]  7E 02 00 00 00 00 00 00
  can0  652   [8]  7F 02 00 00 00 00 00 00
  can0  652   [8]  80 02 00 00 00 00 00 00
  can0  652   [8]  81 02 00 00 00 00 00 00
  can0  652   [8]  82 02 00 00 00 00 00 00
  can0  652   [8]  83 02 00 00 00 00 00 00
  can0  652   [8]  84 02 00 00 00 00 00 00
  can0  652   [8]  85 02 00 00 00 00 00 00
  can0  652   [8]  86 02 00 00 00 00 00 00
  can0  652   [8]  87 02 00 00 00 00 00 00
  can0  652   [8]  88 02 00 00 00 00 00 00
  can0  652   [8]  89 02 00 00 00 00 00 00
  can0  652   [8]  8A 02 00 00 00 00 00 00
  can0  652   [8]  8B 02 00 00 00 00 00 00
  can0  652   [8]  8C 02 00 00 00 00 00 00
  can0  652   [8]  8D 02 00 00 00 00 00 00
  can0  652   [8]  8E 02 00 00 00 00 00 00
  can0  652   [8]  8F 02 00 00 00 00 00 00
  can0  652   [8]  90 02 00 00 00 00 00 00
  can0  652   [8]  91 02 00 00 00 00 00 00
  can0  652   [8]  92 02 00 00 00 00 00 00
  can0  652   [8]  93 02 00 00 00 00 00 00
  can0  652   [8]  94 02 00 00 00 00 00 00
  can0  652   [8]  95 02 00 00 00 00 00 00
  can0  652   [8]  96 02 00 00 00 00 00 00
  can0  652   [8]  97 02 00 00 00 00 00 00
  can0  652   [8]  98 02 00 00 00 00 00 00
  can0  652   [8]  99 02 00 00 00 00 00 00
  can0  652   [8]  9A 02 00 00 00 00 00 00
  can0  652   [8]  9B 02 00 00 00 00 00 00
  can0  652   [8]  9C 02 00 00 00 00 00 00
  can0  652   [8]  9D 02 00 00 00 00 00 00
  can0  652   [8]  9E 02 00 00 00 00 00 00
  can0  652   [8]  9F 02 00 00 00 00 00 00
  can0  652   [8]  A0 02 00 00 00 00 00 00
  can0  652   [8]  A1 02 00 00 00 00 00 00
  can0  652   [8]  A2 02 00 00 00 00 00 00
  can0  652   [8]  A3 02 00 00 00 00 00 00
  can0  652   [8]  A4 02 00 00 00 00 00 00
  can0  652   [8]  A5 02 00 00 00 00 00 00
  can0  652   [8]  A6 02 00 00 00 00 00 00
  can0  652   [8]  A7 02 00 00 00 00 00 00
  can0  652   [8]  A8 02 00 00 00 00 00 00
  can0  652   [8]  A9 02 00 00 00 00 00 00
  can0  652   [8]  AA 02 00 00 00 00 00 00
  can0  652   [8]  AB 02 00 00 00 00 00 00
  can0  652   [8]  AC 02 00 00 00 00 00 00
  can0  652   [8]  AD 02 00 00 00 00 00 00
  can0  652   [8]  AE 02 00 00 00 00 00 00
  can0  652   [8]  AF 02 00 00 00 00 00 00
  can0  652   [8]  B0 02 00 00 00 00 00 00
  can0  652   [8]  B1 02 00 00 00 00 00 00
  can0  652   [8]  B2 02 00 00 00 00 00 00
  can0  652   [8]  B3 02 00 00 00 00 00 00
  can0  652   [8]  B4 02 00 00 00 00 00 00
  can0  652   [8]  B5 02 00 00 00 00 00 00
  can0  652   [8]  B6 02 00 00 00 00 00 00
  can0  652   [8]  B7 02 00 00 00 00 00 00
  can0  652   [8]  B8 02 00 00 00 00 00 00
  can0  652   [8]  B9 02 00 00 00 00 00 00
  can0  652   [8]  BA 02 00 00 00 00 00 00
  can0  652   [8]  BB 02 00 00 00 00 00 00
  can0  652   [8]  BC 02 00 00 00 00 00 00
  can0  652   [8]  BD 02 00 00 00 00 00 00
  can0  652   [8]  BE 02 00 00 00 00 00 00
  can0  652   [8]  BF 02 00 00 00 00 00 00
  can0  652   [8]  C0 02 00 00 00 00 00 00
  can0  652   [8]  C1 02 00 00 00 00 00 00
  can0  652   [8]  C2 02 00 00 00 00 00 00
  can0  652   [8]  C3 02 00 00 00 00 00 00
  can0  652   [8]  C4 02 00 00 00 00 00 00
  can0  652   [8]  C5 02 00 00 00 00 00 00
  can0  652   [8]  C6 02 00 00 00 00 00 00
  can0  652   [8]  C7 02 00 00 00 00 00 00
  can0  652   [8]  C8 02 00 00 00 00 00 00
  can0  652   [8]  C9 02 00 00 00 00 00 00
  can0  652   [8]  CA 02 00 00 00 00 00 00
  can0  652   [8]  CB 02 00 00 00 00 00 00
  can0  652   [8]  CC 02 00 00 00 00 00 00
  can0  652   [8]  CD 02 00 00 00 00 00 00
  can0  652   [8]  CE 02 00 00 00 00 00 00
  can0  652   [8]  CF 02 00 00 00 00 00 00
  can0  652   [8]  D0 02 00 00 00 00 00 00
  can0  652   [8]  D1 02 00 00 00 00 00 00
  can0  652   [8]  D2 02 00 00 00 00 00 00
  can0  652   [8]  D3 02 00 00 00 00 00 00
  can0  652   [8]  D4 02 00 00 00 00 00 00
  can0  652   [8]  D5 02 00 00 00 00 00 00
  can0  652   [8]  D6 02 00 00 00 00 00 00
  can0  652   [8]  D7 02 00 00 00 00 00 00
  can0  652   [8]  D8 02 00 00 00 00 00 00
  can0  652   [8]  D9 02 00 00 00 00 00 00
  can0  652   [8]  DA 02 00 00 00 00 00 00
  can0  652   [8]  DB 02 00 00 00 00 00 00
  can0  652   [8]  DC 02 00 00 00 00 00 00
  can0  652   [8]  DD 02 00 00 00 00 00 00
  can0  652   [8]  DE 02 00 00 00 00 00 00
  can0  652   [8]  DF 02 00 00 00 00 00 00
  can0  652   [8]  E0 02 00 00 00 00 00 00
  can0  652   [8]  E1 02 00 00 00 00 00 00
  can0  652   [8]  E2 02 00 00 00 00 00 00
  can0  652   [8]  E3 02 00 00 00 00 00 00
  can0  652   [8]  E4 02 00 00 00 00 00 00
  can0  652   [8]  E5 02 00 00 00 00 00 00
  can0  652   [8]  E6 02 00 00 00 00 00 00
  can0  652   [8]  E7 02 00 00 00 00 00 00
  can0  652   [8]  E8 02 00 00 00 00 00 00
  can0  652   [8]  E9 02 00 00 00 00 00 00
  can0  652   [8]  EA 02 00 00 00 00 00 00
  can0  652   [8]  EB 02 00 00 00 00 00 00
  can0  652   [8]  EC 02 00 00 00 00 00 00
  can0  652   [8]  ED 02 00 00 00 00 00 00
  can0  652   [8]  EE 02 00 00 00 00 00 00
  can0  652   [8]  EF 02 00 00 00 00 00 00
  can0  652   [8]  F0 02 00 00 00 00 00 00
  can0  652   [8]  F1 02 00 00 00 00 00 00
  can0  652   [8]  F2 02 00 00 00 00 00 00
  can0  652   [8]  F3 02 00 00 00 00 00 00
  can0  652   [8]  F4 02 00 00 00 00 00 00
  can0  652   [8]  F5 02 00 00 00 00 00 00
  can0  652   [8]  F6 02 00 00 00 00 00 00
  can0  652   [8]  F7 02 00 00 00 00 00 00
  can0  652   [8]  F8 02 00 00 00 00 00 00
  can0  652   [8]  F9 02 00 00 00 00 00 00
  can0  652   [8]  FA 02 00 00 00 00 00 00
  can0  652   [8]  FB 02 00 00 00 00 00 00
  can0  652   [8]  FC 02 00 00 00 00 00 00
  can0  652   [8]  FD 02 00 00 00 00 00 00
  can0  652   [8]  FE 02 00 00 00 00 00 00
  can0  652   [8]  FF 02 00 00 00 00 00 00
  can0  652   [8]  00 03 00 00 00 00 00 00
  can0  652   [8]  01 03 00 00 00 00 00 00
  can0  652   [8]  02 03 00 00 00 00 00 00
  can0  652   [8]  03 03 00 00 00 00 00 00
  can0  652   [8]  04 03 00 00 00 00 00 00
  can0  652   [8]  05 03 00 00 00 00 00 00
  can0  652   [8]  06 03 00 00 00 00 00 00
  can0  652   [8]  07 03 00 00 00 00 00 00
  can0  652   [8]  08 03 00 00 00 00 00 00
  can0  652   [8]  09 03 00 00 00 00 00 00
  can0  652   [8]  0A 03 00 00 00 00 00 00
  can0  652   [8]  0B 03 00 00 00 00 00 00
  can0  652   [8]  0C 03 00 00 00 00 00 00
  can0  652   [8]  0D 03 00 00 00 00 00 00
  can0  652   [8]  0E 03 00 00 00 00 00 00
  can0  652   [8]  0F 03 00 00 00 00 00 00
  can0  652   [8]  10 03 00 00 00 00 00 00
  can0  652   [8]  11 03 00 00 00 00 00 00
  can0  652   [8]  12 03 00 00 00 00 00 00
  can0  652   [8]  13 03 00 00 00 00 00 00
  can0  652   [8]  14 03 00 00 00 00 00 00
  can0  652   [8]  15 03 00 00 00 00 00 00
  can0  652   [8]  16 03 00 00 00 00 00 00
  can0  652   [8]  17 03 00 00 00 00 00 00
  can0  652   [8]  18 03 00 00 00 00 00 00
  can0  652   [8]  19 03 00 00 00 00 00 00
  can0  652   [8]  1A 03 00 00 00 00 00 00
  can0  652   [8]  1B 03 00 00 00 00 00 00
  can0  652   [8]  1C 03 00 00 00 00 00 00
  can0  652   [8]  1D 03 00 00 00 00 00 00
  can0  652   [8]  1E 03 00 00 00 00 00 00
  can0  652   [8]  1F 03 00 00 00 00 00 00
  can0  652   [8]  20 03 00 00 00 00 00 00
  can0  652   [8]  21 03 00 00 00 00 00 00
  can0  652   [8]  22 03 00 00 00 00 00 00
  can0  652   [8]  23 03 00 00 00 00 00 00
  can0  652   [8]  24 03 00 00 00 00 00 00
  can0  652   [8]  25 03 00 00 00 00 00 00
  can0  652   [8]  26 03 00 00 00 00 00 00
  can0  652   [8]  27 03 00 00 00 00 00 00
  can0  652   [8]  28 03 00 00 00 00 00 00
  can0  652   [8]  29 03 00 00 00 00 00 00
  can0  652   [8]  2A 03 00 00 00 00 00 00
  can0  652   [8]  2B 03 00 00 00 00 00 00
  can0  652   [8]  2C 03 00 00 00 00 00 00
  can0  652   [8]  2D 03 00 00 00 00 00 00
  can0  652   [8]  2E 03 00 00 00 00 00 00
  can0  652   [8]  2F 03 00 00 00 00 00 00
  can0  652   [8]  30 03 00 00 00 00 00 00
  can0  652   [8]  31 03 00 00 00 00 00 00
  can0  652   [8]  32 03 00 00 00 00 00 00
  can0  652   [8]  33 03 00 00 00 00 00 00
  can0  652   [8]  34 03 00 00 00 00 00 00
  can0  652   [8]  35 03 00 00 00 00 00 00
  can0  652   [8]  36 03 00 00 00 00 00 00
  can0  652   [8]  37 03 00 00 00 00 00 00
  can0  652   [8]  38 03 00 00 00 00 00 00
  can0  652   [8]  39 03 00 00 00 00 00 00
  can0  652   [8]  3A 03 00 00 00 00 00 00
  can0  652   [8]  3B 03 00 00 00 00 00 00
  can0  652   [8]  3C 03 00 00 00 00 00 00
  can0  652   [8]  3D 03 00 00 00 00 00 00
  can0  652   [8]  3E 03 00 00 00 00 00 00
  can0  652   [8]  3F 03 00 00 00 00 00 00
  can0  652   [8]  40 03 00 00 00 00 00 00
  can0  652   [8]  41 03 00 00 00 00 00 00
  can0  652   [8]  42 03 00 00 00 00 00 00
  can0  652   [8]  43 03 00 00 00 00 00 00
  can0  652   [8]  44 03 00 00 00 00 00 00
  can0  652   [8]  45 03 00 00 00 00 00 00
  can0  652   [8]  46 03 00 00 00 00 00 00
  can0  652   [8]  47 03 00 00 00 00 00 00
  can0  652   [8]  48 03 00 00 00 00 00 00
  can0  652   [8]  49 03 00 00 00 00 00 00
  can0  652   [8]  4A 03 00 00 00 00 00 00
  can0  652   [8]  4B 03 00 00 00 00 00 00
  can0  652   [8]  4C 03 00 00 00 00 00 00
  can0  652   [8]  4D 03 00 00 00 00 00 00
  can0  652   [8]  4E 03 00 00 00 00 00 00
  can0  652   [8]  4F 03 00 00 00 00 00 00
  can0  652   [8]  50 03 00 00 00 00 00 00
  can0  652   [8]  51 03 00 00 00 00 00 00
  can0  652   [8]  52 03 00 00 00 00 00 00
  can0  652   [8]  53 03 00 00 00 00 00 00
  can0  652   [8]  54 03 00 00 00 00 00 00
  can0  652   [8]  55 03 00 00 00 00 00 00
  can0  652   [8]  56 03 00 00 00 00 00 00
  can0  652   [8]  57 03 00 00 00 00 00 00
  can0  652   [8]  58 03 00 00 00 00 00 00
  can0  652   [8]  59 03 00 00 00 00 00 00
  can0  652   [8]  5A 03 00 00 00 00 00 00
  can0  652   [8]  5B 03 00 00 00 00 00 00
  can0  652   [8]  5C 03 00 00 00 00 00 00
  can0  652   [8]  5D 03 00 00 00 00 00 00
  can0  652   [8]  5E 03 00 00 00 00 00 00
  can0  652   [8]  5F 03 00 00 00 00 00 00
  can0  652   [8]  60 03 00 00 00 00 00 00
  can0  652   [8]  61 03 00 00 00 00 00 00
  can0  652   [8]  62 03 00 00 00 00 00 00
  can0  652   [8]  63 03 00 00 00 00 00 00
  can0  652   [8]  64 03 00 00 00 00 00 00
  can0  652   [8]  65 03 00 00 00 00 00 00
  can0  652   [8]  66 03 00 00 00 00 00 00
  can0  652   [8]  67 03 00 00 00 00 00 00
  can0  652   [8]  68 03 00 00 00 00 00 00
  can0  652   [8]  69 03 00 00 00 00 00 00
  can0  652   [8]  6A 03 00 00 00 00 00 00
  can0  652   [8]  6B 03 00 00 00 00 00 00
  can0  652   [8]  6C 03 00 00 00 00 00 00
  can0  652   [8]  6D 03 00 00 00 00 00 00
  can0  652   [8]  6E 03 00 00 00 00 00 00
  can0  652   [8]  6F 03 00 00 00 00 00 00
  can0  652   [8]  70 03 00 00 00 00 00 00
  can0  652   [8]  71 03 00 00 00 00 00 00
  can0  652   [8]  72 03 00 00 00 00 00 00
  can0  652   [8]  73 03 00 00 00 00 00 00
  can0  652   [8]  74 03 00 00 00 00 00 00
  can0  652   [8]  75 03 00 00 00 00 00 00
  can0  652   [8]  76 03 00 00 00 00 00 00
  can0  652   [8]  77 03 00 00 00 00 00 00
  can0  652   [8]  78 03 00 00 00 00 00 00
  can0  652   [8]  79 03 00 00 00 00 00 00
  can0  652   [8]  7A 03 00 00 00 00 00 00
  can0  652   [8]  7B 03 00 00 00 00 00 00
  can0  652   [8]  7C 03 00 00 00 00 00 00
  can0  652   [8]  7D 03 00 00 00 00 00 00
  can0  652   [8]  7E 03 00 00 00 00 00 00
  can0  652   [8]  7F 03 00 00 00 00 00 00
  can0  652   [8]  80 03 00 00 00 00 00 00
  can0  652   [8]  81 03 00 00 00 00 00 00
  can0  652   [8]  82 03 00 00 00 00 00 00
  can0  652   [8]  83 03 00 00 00 00 00 00
  can0  652   [8]  84 03 00 00 00 00 00 00
  can0  652   [8]  85 03 00 00 00 00 00 00
  can0  652   [8]  86 03 00 00 00 00 00 00
  can0  652   [8]  87 03 00 00 00 00 00 00
  can0  652   [8]  88 03 00 00 00 00 00 00
  can0  652   [8]  89 03 00 00 00 00 00 00
  can0  652   [8]  8A 03 00 00 00 00 00 00
  can0  652   [8]  8B 03 00 00 00 00 00 00
  can0  652   [8]  8C 03 00 00 00 00 00 00
  can0  652   [8]  8D 03 00 00 00 00 00 00
  can0  652   [8]  8E 03 00 00 00 00 00 00
  can0  652   [8]  8F 03 00 00 00 00 00 00
  can0  652   [8]  90 03 00 00 00 00 00 00
  can0  652   [8]  91 03 00 00 00 00 00 00
  can0  652   [8]  92 03 00 00 00 00 00 00
  can0  652   [8]  93 03 00 00 00 00 00 00
  can0  652   [8]  94 03 00 00 00 00 00 00
  can0  652   [8]  95 03 00 00 00 00 00 00
  can0  652   [8]  96 03 00 00 00 00 00 00
  can0  652   [8]  97 03 00 00 00 00 00 00
  can0  652   [8]  98 03 00 00 00 00 00 00
  can0  652   [8]  99 03 00 00 00 00 00 00
  can0  652   [8]  9A 03 00 00 00 00 00 00
  can0  652   [8]  9B 03 00 00 00 00 00 00
  can0  652   [8]  9C 03 00 00 00 00 00 00
  can0  652   [8]  9D 03 00 00 00 00 00 00
  can0  652   [8]  9E 03 00 00 00 00 00 00
  can0  652   [8]  9F 03 00 00 00 00 00 00
  can0  652   [8]  A0 03 00 00 00 00 00 00
  can0  652   [8]  A1 03 00 00 00 00 00 00
  can0  652   [8]  A2 03 00 00 00 00 00 00
  can0  652   [8]  A3 03 00 00 00 00 00 00
  can0  652   [8]  A4 03 00 00 00 00 00 00
  can0  652   [8]  A5 03 00 00 00 00 00 00
  can0  652   [8]  A6 03 00 00 00 00 00 00
  can0  652   [8]  A7 03 00 00 00 00 00 00
  can0  652   [8]  A8 03 00 00 00 00 00 00
  can0  652   [8]  A9 03 00 00 00 00 00 00
  can0  652   [8]  AA 03 00 00 00 00 00 00
  can0  652   [8]  AB 03 00 00 00 00 00 00
  can0  652   [8]  AC 03 00 00 00 00 00 00
  can0  652   [8]  AD 03 00 00 00 00 00 00
  can0  652   [8]  AE 03 00 00 00 00 00 00
  can0  652   [8]  AF 03 00 00 00 00 00 00
  can0  652   [8]  B0 03 00 00 00 00 00 00
  can0  652   [8]  B1 03 00 00 00 00 00 00
  can0  652   [8]  B2 03 00 00 00 00 00 00
  can0  652   [8]  B3 03 00 00 00 00 00 00
  can0  652   [8]  B4 03 00 00 00 00 00 00
  can0  652   [8]  B5 03 00 00 00 00 00 00
  can0  652   [8]  B6 03 00 00 00 00 00 00
  can0  652   [8]  B7 03 00 00 00 00 00 00
  can0  652   [8]  B8 03 00 00 00 00 00 00
  can0  652   [8]  B9 03 00 00 00 00 00 00
  can0  652   [8]  BA 03 00 00 00 00 00 00
  can0  652   [8]  BB 03 00 00 00 00 00 00
  can0  652   [8]  BC 03 00 00 00 00 00 00
  can0  652   [8]  BD 03 00 00 00 00 00 00
  can0  652   [8]  BE 03 00 00 00 00 00 00
  can0  652   [8]  BF 03 00 00 00 00 00 00
  can0  652   [8]  C0 03 00 00 00 00 00 00
  can0  652   [8]  C1 03 00 00 00 00 00 00
  can0  652   [8]  C2 03 00 00 00 00 00 00
  can0  652   [8]  C3 03 00 00 00 00 00 00
  can0  652   [8]  C4 03 00 00 00 00 00 00
  can0  652   [8]  C5 03 00 00 00 00 00 00
  can0  652   [8]  C6 03 00 00 00 00 00 00
  can0  652   [8]  C7 03 00 00 00 00 00 00
  can0  652   [8]  C8 03 00 00 00 00 00 00
  can0  652   [8]  C9 03 00 00 00 00 00 00
  can0  652   [8]  CA 03 00 00 00 00 00 00
  can0  652   [8]  CB 03 00 00 00 00 00 00
  can0  652   [8]  CC 03 00 00 00 00 00 00
  can0  652   [8]  CD 03 00 00 00 00 00 00
  can0  652   [8]  CE 03 00 00 00 00 00 00
  can0  652   [8]  CF 03 00 00 00 00 00 00
  can0  652   [8]  D0 03 00 00 00 00 00 00
  can0  652   [8]  D1 03 00 00 00 00 00 00
  can0  652   [8]  D2 03 00 00 00 00 00 00
  can0  652   [8]  D3 03 00 00 00 00 00 00
  can0  652   [8]  D4 03 00 00 00 00 00 00
  can0  652   [8]  D5 03 00 00 00 00 00 00
  can0  652   [8]  D6 03 00 00 00 00 00 00
  can0  652   [8]  D7 03 00 00 00 00 00 00
  can0  652   [8]  D8 03 00 00 00 00 00 00
  can0  652   [8]  D9 03 00 00 00 00 00 00
  can0  652   [8]  DA 03 00 00 00 00 00 00
  can0  652   [8]  DB 03 00 00 00 00 00 00
  can0  652   [8]  DC 03 00 00 00 00 00 00
  can0  652   [8]  DD 03 00 00 00 00 00 00
  can0  652   [8]  DE 03 00 00 00 00 00 00
  can0  652   [8]  DF 03 00 00 00 00 00 00
  can0  652   [8]  E0 03 00 00 00 00 00 00
  can0  652   [8]  E1 03 00 00 00 00 00 00
  can0  652   [8]  E2 03 00 00 00 00 00 00
  can0  652   [8]  E3 03 00 00 00 00 00 00
  can0  652   [8]  E4 03 00 00 00 00 00 00
  can0  652   [8]  E5 03 00 00 00 00 00 00
  can0  652   [8]  E6 03 00 00 00 00 00 00
  can0  652   [8]  E7 03 00 00 00 00 00 00
  can0  652   [8]  E8 03 00 00 00 00 00 00
  can0  652   [8]  E9 03 00 00 00 00 00 00
  can0  652   [8]  EA 03 00 00 00 00 00 00
  can0  652   [8]  EB 03 00 00 00 00 00 00
  can0  652   [8]  EC 03 00 00 00 00 00 00
  can0  652   [8]  ED 03 00 00 00 00 00 00
  can0  652   [8]  EE 03 00 00 00 00 00 00
  can0  652   [8]  EF 03 00 00 00 00 00 00
  can0  652   [8]  F0 03 00 00 00 00 00 00
  can0  652   [8]  F1 03 00 00 00 00 00 00
  can0  652   [8]  F2 03 00 00 00 00 00 00
  can0  652   [8]  F3 03 00 00 00 00 00 00
  can0  652   [8]  F4 03 00 00 00 00 00 00
  can0  652   [8]  F5 03 00 00 00 00 00 00
  can0  652   [8]  F6 03 00 00 00 00 00 00
  can0  652   [8]  F7 03 00 00 00 00 00 00
  can0  652   [8]  F8 03 00 00 00 00 00 00
  can0  652   [8]  F9 03 00 00 00 00 00 00
  can0  652   [8]  FA 03 00 00 00 00 00 00
  can0  652   [8]  FB 03 00 00 00 00 00 00
  can0  652   [8]  FC 03 00 00 00 00 00 00
  can0  652   [8]  FD 03 00 00 00 00 00 00
  can0  652   [8]  FE 03 00 00 00 00 00 00
  can0  652   [8]  FF 03 00 00 00 00 00 00
  can0  652   [8]  00 04 00 00 00 00 00 00
  can0  652   [8]  01 04 00 00 00 00 00 00
  can0  652   [8]  02 04 00 00 00 00 00 00
  can0  652   [8]  03 04 00 00 00 00 00 00
  can0  652   [8]  04 04 00 00 00 00 00 00
  can0  652   [8]  05 04 00 00 00 00 00 00
  can0  652   [8]  06 04 00 00 00 00 00 00
  can0  652   [8]  07 04 00 00 00 00 00 00
  can0  652   [8]  08 04 00 00 00 00 00 00
  can0  652   [8]  09 04 00 00 00 00 00 00
  can0  652   [8]  0A 04 00 00 00 00 00 00
  can0  652   [8]  0B 04 00 00 00 00 00 00
  can0  652   [8]  0C 04 00 00 00 00 00 00
  can0  652   [8]  0D 04 00 00 00 00 00 00
  can0  652   [8]  0E 04 00 00 00 00 00 00
  can0  652   [8]  0F 04 00 00 00 00 00 00
  can0  652   [8]  10 04 00 00 00 00 00 00
  can0  652   [8]  11 04 00 00 00 00 00 00
  can0  652   [8]  12 04 00 00 00 00 00 00
  can0  652   [8]  13 04 00 00 00 00 00 00
  can0  652   [8]  14 04 00 00 00 00 00 00
  can0  652   [8]  15 04 00 00 00 00 00 00
  can0  652   [8]  16 04 00 00 00 00 00 00
  can0  652   [8]  17 04 00 00 00 00 00 00
  can0  652   [8]  18 04 00 00 00 00 00 00
  can0  652   [8]  19 04 00 00 00 00 00 00
  can0  652   [8]  1A 04 00 00 00 00 00 00
  can0  652   [8]  1B 04 00 00 00 00 00 00
  can0  652   [8]  1C 04 00 00 00 00 00 00
  can0  652   [8]  1D 04 00 00 00 00 00 00
  can0  652   [8]  1E 04 00 00 00 00 00 00
  can0  652   [8]  1F 04 00 00 00 00 00 00
  can0  652   [8]  20 04 00 00 00 00 00 00
  can0  652   [8]  21 04 00 00 00 00 00 00
  can0  652   [8]  22 04 00 00 00 00 00 00
  can0  652   [8]  23 04 00 00 00 00 00 00
  can0  652   [8]  24 04 00 00 00 00 00 00
  can0  652   [8]  25 04 00 00 00 00 00 00
  can0  652   [8]  26 04 00 00 00 00 00 00
  can0  652   [8]  27 04 00 00 00 00 00 00
  can0  652   [8]  28 04 00 00 00 00 00 00
  can0  652   [8]  29 04 00 00 00 00 00 00
  can0  652   [8]  2A 04 00 00 00 00 00 00
  can0  652   [8]  2B 04 00 00 00 00 00 00
  can0  652   [8]  2C 04 00 00 00 00 00 00
  can0  652   [8]  2D 04 00 00 00 00 00 00
  can0  652   [8]  2E 04 00 00 00 00 00 00
  can0  652   [8]  2F 04 00 00 00 00 00 00
  can0  652   [8]  30 04 00 00 00 00 00 00
  can0  652   [8]  31 04 00 00 00 00 00 00
  can0  652   [8]  32 04 00 00 00 00 00 00
  can0  652   [8]  33 04 00 00 00 00 00 00
  can0  652   [8]  34 04 00 00 00 00 00 00
  can0  652   [8]  35 04 00 00 00 00 00 00
  can0  652   [8]  36 04 00 00 00 00 00 00
  can0  652   [8]  37 04 00 00 00 00 00 00
  can0  652   [8]  38 04 00 00 00 00 00 00
  can0  652   [8]  39 04 00 00 00 00 00 00
  can0  652   [8]  3A 04 00 00 00 00 00 00
  can0  652   [8]  3B 04 00 00 00 00 00 00
  can0  652   [8]  3C 04 00 00 00 00 00 00
  can0  652   [8]  3D 04 00 00 00 00 00 00
  can0  652   [8]  3E 04 00 00 00 00 00 00
  can0  652   [8]  3F 04 00 00 00 00 00 00
  can0  652   [8]  40 04 00 00 00 00 00 00
  can0  652   [8]  41 04 00 00 00 00 00 00
  can0  652   [8]  42 04 00 00 00 00 00 00
  can0  652   [8]  43 04 00 00 00 00 00 00
  can0  652   [8]  44 04 00 00 00 00 00 00
  can0  652   [8]  45 04 00 00 00 00 00 00
  can0  652   [8]  46 04 00 00 00 00 00 00
  can0  652   [8]  47 04 00 00 00 00 00 00
  can0  652   [8]  48 04 00 00 00 00 00 00
  can0  652   [8]  49 04 00 00 00 00 00 00
  can0  652   [8]  4A 04 00 00 00 00 00 00
  can0  652   [8]  4B 04 00 00 00 00 00 00
  can0  652   [8]  4C 04 00 00 00 00 00 00
  can0  652   [8]  4D 04 00 00 00 00 00 00
  can0  652   [8]  4E 04 00 00 00 00 00 00
  can0  652   [8]  4F 04 00 00 00 00 00 00
  can0  652   [8]  50 04 00 00 00 00 00 00
  can0  652   [8]  51 04 00 00 00 00 00 00
  can0  652   [8]  52 04 00 00 00 00 00 00
  can0  652   [8]  53 04 00 00 00 00 00 00
  can0  652   [8]  54 04 00 00 00 00 00 00
  can0  652   [8]  55 04 00 00 00 00 00 00
  can0  652   [8]  56 04 00 00 00 00 00 00
  can0  652   [8]  57 04 00 00 00 00 00 00
  can0  652   [8]  58 04 00 00 00 00 00 00
  can0  652   [8]  59 04 00 00 00 00 00 00
  can0  652   [8]  5A 04 00 00 00 00 00 00
  can0  652   [8]  5B 04 00 00 00 00 00 00
  can0  652   [8]  5C 04 00 00 00 00 00 00
  can0  652   [8]  5D 04 00 00 00 00 00 00
  can0  652   [8]  5E 04 00 00 00 00 00 00
  can0  652   [8]  5F 04 00 00 00 00 00 00
  can0  652   [8]  60 04 00 00 00 00 00 00
  can0  652   [8]  61 04 00 00 00 00 00 00
  can0  652   [8]  62 04 00 00 00 00 00 00
  can0  652   [8]  63 04 00 00 00 00 00 00
  can0  652   [8]  64 04 00 00 00 00 00 00
  can0  652   [8]  65 04 00 00 00 00 00 00
  can0  652   [8]  66 04 00 00 00 00 00 00
  can0  652   [8]  67 04 00 00 00 00 00 00
  can0  652   [8]  68 04 00 00 00 00 00 00
  can0  652   [8]  69 04 00 00 00 00 00 00
  can0  652   [8]  6A 04 00 00 00 00 00 00
  can0  652   [8]  6B 04 00 00 00 00 00 00
  can0  652   [8]  6C 04 00 00 00 00 00 00
  can0  652   [8]  6D 04 00 00 00 00 00 00
  can0  652   [8]  6E 04 00 00 00 00 00 00
  can0  652   [8]  6F 04 00 00 00 00 00 00
  can0  652   [8]  70 04 00 00 00 00 00 00
  can0  652   [8]  71 04 00 00 00 00 00 00
  can0  652   [8]  72 04 00 00 00 00 00 00
  can0  652   [8]  73 04 00 00 00 00 00 00
  can0  652   [8]  74 04 00 00 00 00 00 00
  can0  652   [8]  75 04 00 00 00 00 00 00
  can0  652   [8]  76 04 00 00 00 00 00 00
  can0  652   [8]  77 04 00 00 00 00 00 00
  can0  652   [8]  78 04 00 00 00 00 00 00
  can0  652   [8]  79 04 00 00 00 00 00 00
  can0  652   [8]  7A 04 00 00 00 00 00 00
  can0  652   [8]  7B 04 00 00 00 00 00 00
  can0  652   [8]  7C 04 00 00 00 00 00 00
  can0  652   [8]  7D 04 00 00 00 00 00 00
  can0  652   [8]  7E 04 00 00 00 00 00 00
  can0  652   [8]  7F 04 00 00 00 00 00 00
  can0  652   [8]  80 04 00 00 00 00 00 00
  can0  652   [8]  81 04 00 00 00 00 00 00
  can0  652   [8]  82 04 00 00 00 00 00 00
  can0  652   [8]  83 04 00 00 00 00 00 00
  can0  652   [8]  84 04 00 00 00 00 00 00
  can0  652   [8]  85 04 00 00 00 00 00 00
  can0  652   [8]  86 04 00 00 00 00 00 00
  can0  652   [8]  87 04 00 00 00 00 00 00
  can0  652   [8]  88 04 00 00 00 00 00 00
  can0  652   [8]  89 04 00 00 00 00 00 00
  can0  652   [8]  8A 04 00 00 00 00 00 00
  can0  652   [8]  8B 04 00 00 00 00 00 00
  can0  652   [8]  8C 04 00 00 00 00 00 00
  can0  652   [8]  8D 04 00 00 00 00 00 00
  can0  652   [8]  8E 04 00 00 00 00 00 00
  can0  652   [8]  8F 04 00 00 00 00 00 00
  can0  652   [8]  90 04 00 00 00 00 00 00
  can0  652   [8]  91 04 00 00 00 00 00 00
  can0  652   [8]  92 04 00 00 00 00 00 00
  can0  652   [8]  93 04 00 00 00 00 00 00
  can0  652   [8]  94 04 00 00 00 00 00 00
  can0  652   [8]  95 04 00 00 00 00 00 00
  can0  652   [8]  96 04 00 00 00 00 00 00
  can0  652   [8]  97 04 00 00 00 00 00 00
  can0  652   [8]  98 04 00 00 00 00 00 00
  can0  652   [8]  99 04 00 00 00 00 00 00
  can0  652   [8]  9A 04 00 00 00 00 00 00
  can0  652   [8]  9B 04 00 00 00 00 00 00
  can0  652   [8]  9C 04 00 00 00 00 00 00
  can0  652   [8]  9D 04 00 00 00 00 00 00
  can0  652   [8]  9E 04 00 00 00 00 00 00
  can0  652   [8]  9F 04 00 00 00 00 00 00
  can0  652   [8]  A0 04 00 00 00 00 00 00
  can0  652   [8]  A1 04 00 00 00 00 00 00
  can0  652   [8]  A2 04 00 00 00 00 00 00
  can0  652   [8]  A3 04 00 00 00 00 00 00
  can0  652   [8]  A4 04 00 00 00 00 00 00
  can0  652   [8]  A5 04 00 00 00 00 00 00
  can0  652   [8]  A6 04 00 00 00 00 00 00
  can0  652   [8]  A7 04 00 00 00 00 00 00
  can0  652   [8]  A8 04 00 00 00 00 00 00
  can0  652   [8]  A9 04 00 00 00 00 00 00
  can0  652   [8]  AA 04 00 00 00 00 00 00
  can0  652   [8]  AB 04 00 00 00 00 00 00
  can0  652   [8]  AC 04 00 00 00 00 00 00
  can0  652   [8]  AD 04 00 00 00 00 00 00
  can0  652   [8]  AE 04 00 00 00 00 00 00
  can0  652   [8]  AF 04 00 00 00 00 00 00
  can0  652   [8]  B0 04 00 00 00 00 00 00
  can0  652   [8]  B1 04 00 00 00 00 00 00
  can0  652   [8]  B2 04 00 00 00 00 00 00
  can0  652   [8]  B3 04 00 00 00 00 00 00
  can0  652   [8]  B4 04 00 00 00 00 00 00
  can0  652   [8]  B5 04 00 00 00 00 00 00
  can0  652   [8]  B6 04 00 00 00 00 00 00
  can0  652   [8]  B7 04 00 00 00 00 00 00
  can0  652   [8]  B8 04 00 00 00 00 00 00
  can0  652   [8]  B9 04 00 00 00 00 00 00
  can0  652   [8]  BA 04 00 00 00 00 00 00
  can0  652   [8]  BB 04 00 00 00 00 00 00
  can0  652   [8]  BC 04 00 00 00 00 00 00
  can0  652   [8]  BD 04 00 00 00 00 00 00
  can0  652   [8]  BE 04 00 00 00 00 00 00
  can0  652   [8]  BF 04 00 00 00 00 00 00
  can0  652   [8]  C0 04 00 00 00 00 00 00
  can0  652   [8]  C1 04 00 00 00 00 00 00
  can0  652   [8]  C2 04 00 00 00 00 00 00
  can0  652   [8]  C3 04 00 00 00 00 00 00
  can0  652   [8]  C4 04 00 00 00 00 00 00
  can0  652   [8]  C5 04 00 00 00 00 00 00
  can0  652   [8]  C6 04 00 00 00 00 00 00
  can0  652   [8]  C7 04 00 00 00 00 00 00
  can0  652   [8]  C8 04 00 00 00 00 00 00
  can0  652   [8]  C9 04 00 00 00 00 00 00
  can0  652   [8]  CA 04 00 00 00 00 00 00
  can0  652   [8]  CB 04 00 00 00 00 00 00
  can0  652   [8]  CC 04 00 00 00 00 00 00
  can0  652   [8]  CD 04 00 00 00 00 00 00
  can0  652   [8]  CE 04 00 00 00 00 00 00
  can0  652   [8]  CF 04 00 00 00 00 00 00
  can0  652   [8]  D0 04 00 00 00 00 00 00
  can0  652   [8]  D1 04 00 00 00 00 00 00
  can0  652   [8]  D2 04 00 00 00 00 00 00
  can0  652   [8]  D3 04 00 00 00 00 00 00
  can0  652   [8]  D4 04 00 00 00 00 00 00
  can0  652   [8]  D5 04 00 00 00 00 00 00
  can0  652   [8]  D6 04 00 00 00 00 00 00
  can0  652   [8]  D7 04 00 00 00 00 00 00
  can0  652   [8]  D8 04 00 00 00 00 00 00
  can0  652   [8]  D9 04 00 00 00 00 00 00
  can0  652   [8]  DA 04 00 00 00 00 00 00
  can0  652   [8]  DB 04 00 00 00 00 00 00
  can0  652   [8]  DC 04 00 00 00 00 00 00
  can0  652   [8]  DD 04 00 00 00 00 00 00
  can0  652   [8]  DE 04 00 00 00 00 00 00
  can0  652   [8]  DF 04 00 00 00 00 00 00
  can0  652   [8]  E0 04 00 00 00 00 00 00
  can0  652   [8]  E1 04 00 00 00 00 00 00
  can0  652   [8]  E2 04 00 00 00 00 00 00
  can0  652   [8]  E3 04 00 00 00 00 00 00
  can0  652   [8]  E4 04 00 00 00 00 00 00
  can0  652   [8]  E5 04 00 00 00 00 00 00
  can0  652   [8]  E6 04 00 00 00 00 00 00
  can0  652   [8]  E7 04 00 00 00 00 00 00
  can0  652   [8]  E8 04 00 00 00 00 00 00
  can0  652   [8]  E9 04 00 00 00 00 00 00
  can0  652   [8]  EA 04 00 00 00 00 00 00
  can0  652   [8]  EB 04 00 00 00 00 00 00
  can0  652   [8]  EC 04 00 00 00 00 00 00
  can0  652   [8]  ED 04 00 00 00 00 00 00
  can0  652   [8]  EE 04 00 00 00 00 00 00
  can0  652   [8]  EF 04 00 00 00 00 00 00
  can0  652   [8]  F0 04 00 00 00 00 00 00
  can0  652   [8]  F1 04 00 00 00 00 00 00
  can0  652   [8]  F2 04 00 00 00 00 00 00
  can0  652   [8]  F3 04 00 00 00 00 00 00
  can0  652   [8]  F4 04 00 00 00 00 00 00
  can0  652   [8]  F5 04 00 00 00 00 00 00
  can0  652   [8]  F6 04 00 00 00 00 00 00
  can0  652   [8]  F7 04 00 00 00 00 00 00
  can0  652   [8]  F8 04 00 00 00 00 00 00
  can0  652   [8]  F9 04 00 00 00 00 00 00
  can0  652   [8]  FA 04 00 00 00 00 00 00
  can0  652   [8]  FB 04 00 00 00 00 00 00
  can0  652   [8]  FC 04 00 00 00 00 00 00
  can0  652   [8]  FD 04 00 00 00 00 00 00
  can0  652   [8]  FE 04 00 00 00 00 00 00
  can0  652   [8]  FF 04 00 00 00 00 00 00
  can0  652   [8]  00 05 00 00 00 00 00 00
  can0  652   [8]  01 05 00 00 00 00 00 00
  can0  652   [8]  02 05 00 00 00 00 00 00
  can0  652   [8]  03 05 00 00 00 00 00 00
  can0  652   [8]  04 05 00 00 00 00 00 00
  can0  652   [8]  05 05 00 00 00 00 00 00
  can0  652   [8]  06 05 00 00 00 00 00 00
  can0  652   [8]  07 05 00 00 00 00 00 00
  can0  652   [8]  08 05 00 00 00 00 00 00
  can0  652   [8]  09 05 00 00 00 00 00 00
  can0  652   [8]  0A 05 00 00 00 00 00 00
  can0  652   [8]  0B 05 00 00 00 00 00 00
  can0  652   [8]  0C 05 00 00 00 00 00 00
  can0  652   [8]  0D 05 00 00 00 00 00 00
  can0  652   [8]  0E 05 00 00 00 00 00 00
  can0  652   [8]  0F 05 00 00 00 00 00 00
  can0  652   [8]  10 05 00 00 00 00 00 00
  can0  652   [8]  11 05 00 00 00 00 00 00
  can0  652   [8]  12 05 00 00 00 00 00 00
  can0  652   [8]  13 05 00 00 00 00 00 00
  can0  652   [8]  14 05 00 00 00 00 00 00
  can0  652   [8]  15 05 00 00 00 00 00 00
  can0  652   [8]  16 05 00 00 00 00 00 00
  can0  652   [8]  17 05 00 00 00 00 00 00
  can0  652   [8]  18 05 00 00 00 00 00 00
  can0  652   [8]  19 05 00 00 00 00 00 00
  can0  652   [8]  1A 05 00 00 00 00 00 00
  can0  652   [8]  1B 05 00 00 00 00 00 00
  can0  652   [8]  1C 05 00 00 00 00 00 00
  can0  652   [8]  1D 05 00 00 00 00 00 00
  can0  652   [8]  1E 05 00 00 00 00 00 00
  can0  652   [8]  1F 05 00 00 00 00 00 00
  can0  652   [8]  20 05 00 00 00 00 00 00
  can0  652   [8]  21 05 00 00 00 00 00 00
  can0  652   [8]  22 05 00 00 00 00 00 00
  can0  652   [8]  23 05 00 00 00 00 00 00
  can0  652   [8]  24 05 00 00 00 00 00 00
  can0  652   [8]  25 05 00 00 00 00 00 00
  can0  652   [8]  26 05 00 00 00 00 00 00
  can0  652   [8]  27 05 00 00 00 00 00 00
  can0  652   [8]  28 05 00 00 00 00 00 00
  can0  652   [8]  29 05 00 00 00 00 00 00
  can0  652   [8]  2A 05 00 00 00 00 00 00
  can0  652   [8]  2B 05 00 00 00 00 00 00
  can0  652   [8]  2C 05 00 00 00 00 00 00
  can0  652   [8]  2D 05 00 00 00 00 00 00
  can0  652   [8]  2E 05 00 00 00 00 00 00
  can0  652   [8]  2F 05 00 00 00 00 00 00
  can0  652   [8]  30 05 00 00 00 00 00 00
  can0  652   [8]  31 05 00 00 00 00 00 00
  can0  652   [8]  32 05 00 00 00 00 00 00
  can0  652   [8]  33 05 00 00 00 00 00 00
  can0  652   [8]  34 05 00 00 00 00 00 00
  can0  652   [8]  35 05 00 00 00 00 00 00
  can0  652   [8]  36 05 00 00 00 00 00 00
  can0  652   [8]  37 05 00 00 00 00 00 00
  can0  652   [8]  38 05 00 00 00 00 00 00
  can0  652   [8]  39 05 00 00 00 00 00 00
  can0  652   [8]  3A 05 00 00 00 00 00 00
  can0  652   [8]  3B 05 00 00 00 00 00 00
  can0  652   [8]  3C 05 00 00 00 00 00 00
  can0  652   [8]  3D 05 00 00 00 00 00 00
  can0  652   [8]  3E 05 00 00 00 00 00 00
  can0  652   [8]  3F 05 00 00 00 00 00 00
  can0  652   [8]  40 05 00 00 00 00 00 00
  can0  652   [8]  41 05 00 00 00 00 00 00
  can0  652   [8]  42 05 00 00 00 00 00 00
  can0  652   [8]  43 05 00 00 00 00 00 00
  can0  652   [8]  44 05 00 00 00 00 00 00
  can0  652   [8]  45 05 00 00 00 00 00 00
  can0  652   [8]  46 05 00 00 00 00 00 00
  can0  652   [8]  47 05 00 00 00 00 00 00
  can0  652   [8]  48 05 00 00 00 00 00 00
  can0  652   [8]  49 05 00 00 00 00 00 00
  can0  652   [8]  4A 05 00 00 00 00 00 00
  can0  652   [8]  4B 05 00 00 00 00 00 00
  can0  652   [8]  4C 05 00 00 00 00 00 00
  can0  652   [8]  4D 05 00 00 00 00 00 00
  can0  652   [8]  4E 05 00 00 00 00 00 00
  can0  652   [8]  4F 05 00 00 00 00 00 00
  can0  652   [8]  50 05 00 00 00 00 00 00
  can0  652   [8]  51 05 00 00 00 00 00 00
  can0  652   [8]  52 05 00 00 00 00 00 00
  can0  652   [8]  53 05 00 00 00 00 00 00
  can0  652   [8]  54 05 00 00 00 00 00 00
  can0  652   [8]  55 05 00 00 00 00 00 00
  can0  652   [8]  56 05 00 00 00 00 00 00
  can0  652   [8]  57 05 00 00 00 00 00 00
  can0  652   [8]  58 05 00 00 00 00 00 00
  can0  652   [8]  59 05 00 00 00 00 00 00
  can0  652   [8]  5A 05 00 00 00 00 00 00
  can0  652   [8]  5B 05 00 00 00 00 00 00
  can0  652   [8]  5C 05 00 00 00 00 00 00
  can0  652   [8]  5D 05 00 00 00 00 00 00
  can0  652   [8]  5E 05 00 00 00 00 00 00
  can0  652   [8]  5F 05 00 00 00 00 00 00
  can0  652   [8]  60 05 00 00 00 00 00 00
  can0  652   [8]  61 05 00 00 00 00 00 00
  can0  652   [8]  62 05 00 00 00 00 00 00
  can0  652   [8]  63 05 00 00 00 00 00 00
  can0  652   [8]  64 05 00 00 00 00 00 00
  can0  652   [8]  65 05 00 00 00 00 00 00
  can0  652   [8]  66 05 00 00 00 00 00 00
  can0  652   [8]  67 05 00 00 00 00 00 00
  can0  652   [8]  68 05 00 00 00 00 00 00
  can0  652   [8]  69 05 00 00 00 00 00 00
  can0  652   [8]  6A 05 00 00 00 00 00 00
  can0  652   [8]  6B 05 00 00 00 00 00 00
  can0  652   [8]  6C 05 00 00 00 00 00 00
  can0  652   [8]  6D 05 00 00 00 00 00 00
  can0  652   [8]  6E 05 00 00 00 00 00 00
  can0  652   [8]  6F 05 00 00 00 00 00 00
  can0  652   [8]  70 05 00 00 00 00 00 00
  can0  652   [8]  71 05 00 00 00 00 00 00
  can0  652   [8]  72 05 00 00 00 00 00 00
  can0  652   [8]  73 05 00 00 00 00 00 00
  can0  652   [8]  74 05 00 00 00 00 00 00
  can0  652   [8]  75 05 00 00 00 00 00 00
  can0  652   [8]  76 05 00 00 00 00 00 00
  can0  652   [8]  77 05 00 00 00 00 00 00
  can0  652   [8]  78 05 00 00 00 00 00 00
  can0  652   [8]  79 05 00 00 00 00 00 00
  can0  652   [8]  7A 05 00 00 00 00 00 00
  can0  652   [8]  7B 05 00 00 00 00 00 00
  can0  652   [8]  7C 05 00 00 00 00 00 00
  can0  652   [8]  7D 05 00 00 00 00 00 00
  can0  652   [8]  7E 05 00 00 00 00 00 00
  can0  652   [8]  7F 05 00 00 00 00 00 00
  can0  652   [8]  80 05 00 00 00 00 00 00
  can0  652   [8]  81 05 00 00 00 00 00 00
  can0  652   [8]  82 05 00 00 00 00 00 00
  can0  652   [8]  83 05 00 00 00 00 00 00
  can0  652   [8]  84 05 00 00 00 00 00 00
  can0  652   [8]  85 05 00 00 00 00 00 00
  can0  652   [8]  86 05 00 00 00 00 00 00
  can0  652   [8]  87 05 00 00 00 00 00 00
  can0  652   [8]  88 05 00 00 00 00 00 00
  can0  652   [8]  89 05 00 00 00 00 00 00
  can0  652   [8]  8A 05 00 00 00 00 00 00
  can0  652   [8]  8B 05 00 00 00 00 00 00
  can0  652   [8]  8C 05 00 00 00 00 00 00
  can0  652   [8]  8D 05 00 00 00 00 00 00
  can0  652   [8]  8E 05 00 00 00 00 00 00
  can0  652   [8]  8F 05 00 00 00 00 00 00
  can0  652   [8]  90 05 00 00 00 00 00 00
  can0  652   [8]  91 05 00 00 00 00 00 00
  can0  652   [8]  92 05 00 00 00 00 00 00
  can0  652   [8]  93 05 00 00 00 00 00 00
  can0  652   [8]  94 05 00 00 00 00 00 00
  can0  652   [8]  95 05 00 00 00 00 00 00
  can0  652   [8]  96 05 00 00 00 00 00 00
  can0  652   [8]  97 05 00 00 00 00 00 00
  can0  652   [8]  98 05 00 00 00 00 00 00
  can0  652   [8]  99 05 00 00 00 00 00 00
  can0  652   [8]  9A 05 00 00 00 00 00 00
  can0  652   [8]  9B 05 00 00 00 00 00 00
  can0  652   [8]  9C 05 00 00 00 00 00 00
  can0  652   [8]  9D 05 00 00 00 00 00 00
  can0  652   [8]  9E 05 00 00 00 00 00 00
  can0  652   [8]  9F 05 00 00 00 00 00 00
  can0  652   [8]  A0 05 00 00 00 00 00 00
  can0  652   [8]  A1 05 00 00 00 00 00 00
  can0  652   [8]  A2 05 00 00 00 00 00 00
  can0  652   [8]  A3 05 00 00 00 00 00 00
  can0  652   [8]  A4 05 00 00 00 00 00 00
  can0  652   [8]  A5 05 00 00 00 00 00 00
  can0  652   [8]  A6 05 00 00 00 00 00 00
  can0  652   [8]  A7 05 00 00 00 00 00 00
  can0  652   [8]  A8 05 00 00 00 00 00 00
  can0  652   [8]  A9 05 00 00 00 00 00 00
  can0  652   [8]  AA 05 00 00 00 00 00 00
  can0  652   [8]  AB 05 00 00 00 00 00 00
  can0  652   [8]  AC 05 00 00 00 00 00 00
  can0  652   [8]  AD 05 00 00 00 00 00 00
  can0  652   [8]  AE 05 00 00 00 00 00 00
  can0  652   [8]  AF 05 00 00 00 00 00 00
  can0  652   [8]  B0 05 00 00 00 00 00 00
  can0  652   [8]  B1 05 00 00 00 00 00 00
  can0  652   [8]  B2 05 00 00 00 00 00 00
  can0  652   [8]  B3 05 00 00 00 00 00 00
  can0  652   [8]  B4 05 00 00 00 00 00 00
  can0  652   [8]  B5 05 00 00 00 00 00 00
  can0  652   [8]  B6 05 00 00 00 00 00 00
  can0  652   [8]  B7 05 00 00 00 00 00 00
  can0  652   [8]  B8 05 00 00 00 00 00 00
  can0  652   [8]  B9 05 00 00 00 00 00 00
  can0  652   [8]  BA 05 00 00 00 00 00 00
  can0  652   [8]  BB 05 00 00 00 00 00 00
  can0  652   [8]  BC 05 00 00 00 00 00 00
  can0  652   [8]  BD 05 00 00 00 00 00 00
  can0  652   [8]  BE 05 00 00 00 00 00 00
  can0  652   [8]  BF 05 00 00 00 00 00 00
  can0  652   [8]  C0 05 00 00 00 00 00 00
  can0  652   [8]  C1 05 00 00 00 00 00 00
  can0  652   [8]  C2 05 00 00 00 00 00 00
  can0  652   [8]  C3 05 00 00 00 00 00 00
  can0  652   [8]  C4 05 00 00 00 00 00 00
  can0  652   [8]  C5 05 00 00 00 00 00 00
  can0  652   [8]  C6 05 00 00 00 00 00 00
  can0  652   [8]  C7 05 00 00 00 00 00 00
  can0  652   [8]  C8 05 00 00 00 00 00 00
  can0  652   [8]  C9 05 00 00 00 00 00 00
  can0  652   [8]  CA 05 00 00 00 00 00 00
  can0  652   [8]  CB 05 00 00 00 00 00 00
  can0  652   [8]  CC 05 00 00 00 00 00 00
  can0  652   [8]  CD 05 00 00 00 00 00 00
  can0  652   [8]  CE 05 00 00 00 00 00 00
  can0  652   [8]  CF 05 00 00 00 00 00 00
  can0  652   [8]  D0 05 00 00 00 00 00 00
  can0  652   [8]  D1 05 00 00 00 00 00 00
  can0  652   [8]  D2 05 00 00 00 00 00 00
  can0  652   [8]  D3 05 00 00 00 00 00 00
  can0  652   [8]  D4 05 00 00 00 00 00 00
  can0  652   [8]  D5 05 00 00 00 00 00 00
  can0  652   [8]  D6 05 00 00 00 00 00 00
  can0  652   [8]  D7 05 00 00 00 00 00 00
  can0  652   [8]  D8 05 00 00 00 00 00 00
  can0  652   [8]  D9 05 00 00 00 00 00 00
  can0  652   [8]  DA 05 00 00 00 00 00 00
  can0  652   [8]  DB 05 00 00 00 00 00 00
  can0  652   [8]  DC 05 00 00 00 00 00 00
  can0  652   [8]  DD 05 00 00 00 00 00 00
  can0  652   [8]  DE 05 00 00 00 00 00 00
  can0  652   [8]  DF 05 00 00 00 00 00 00
  can0  652   [8]  E0 05 00 00 00 00 00 00
  can0  652   [8]  E1 05 00 00 00 00 00 00
  can0  652   [8]  E2 05 00 00 00 00 00 00
  can0  652   [8]  E3 05 00 00 00 00 00 00
  can0  652   [8]  E4 05 00 00 00 00 00 00
  can0  652   [8]  E5 05 00 00 00 00 00 00
  can0  652   [8]  E6 05 00 00 00 00 00 00
  can0  652   [8]  E7 05 00 00 00 00 00 00
  can0  652   [8]  E8 05 00 00 00 00 00 00
  can0  652   [8]  E9 05 00 00 00 00 00 00
  can0  652   [8]  EA 05 00 00 00 00 00 00
  can0  652   [8]  EB 05 00 00 00 00 00 00
  can0  652   [8]  EC 05 00 00 00 00 00 00
  can0  652   [8]  ED 05 00 00 00 00 00 00
  can0  652   [8]  EE 05 00 00 00 00 00 00
  can0  652   [8]  EF 05 00 00 00 00 00 00
  can0  652   [8]  F0 05 00 00 00 00 00 00
  can0  652   [8]  F1 05 00 00 00 00 00 00
  can0  652   [8]  F2 05 00 00 00 00 00 00
  can0  652   [8]  F3 05 00 00 00 00 00 00
  can0  652   [8]  F4 05 00 00 00 00 00 00
  can0  652   [8]  F5 05 00 00 00 00 00 00
  can0  652   [8]  F6 05 00 00 00 00 00 00
  can0  652   [8]  F7 05 00 00 00 00 00 00
  can0  652   [8]  F8 05 00 00 00 00 00 00
  can0  652   [8]  F9 05 00 00 00 00 00 00
  can0  652   [8]  FA 05 00 00 00 00 00 00
  can0  652   [8]  FB 05 00 00 00 00 00 00
  can0  652   [8]  FC 05 00 00 00 00 00 00
  can0  652   [8]  FD 05 00 00 00 00 00 00
  can0  652   [8]  FE 05 00 00 00 00 00 00
  can0  652   [8]  FF 05 00 00 00 00 00 00
  can0  652   [8]  00 06 00 00 00 00 00 00
  can0  652   [8]  01 06 00 00 00 00 00 00
  can0  652   [8]  02 06 00 00 00 00 00 00
  can0  652   [8]  03 06 00 00 00 00 00 00
  can0  652   [8]  04 06 00 00 00 00 00 00
  can0  652   [8]  05 06 00 00 00 00 00 00
  can0  652   [8]  06 06 00 00 00 00 00 00
  can0  652   [8]  07 06 00 00 00 00 00 00
  can0  652   [8]  08 06 00 00 00 00 00 00
  can0  652   [8]  09 06 00 00 00 00 00 00
  can0  652   [8]  0A 06 00 00 00 00 00 00
  can0  652   [8]  0B 06 00 00 00 00 00 00
  can0  652   [8]  0C 06 00 00 00 00 00 00
  can0  652   [8]  0D 06 00 00 00 00 00 00
  can0  652   [8]  0E 06 00 00 00 00 00 00
  can0  652   [8]  0F 06 00 00 00 00 00 00
  can0  652   [8]  10 06 00 00 00 00 00 00
  can0  652   [8]  11 06 00 00 00 00 00 00
  can0  652   [8]  12 06 00 00 00 00 00 00
  can0  652   [8]  13 06 00 00 00 00 00 00
  can0  652   [8]  14 06 00 00 00 00 00 00
  can0  652   [8]  15 06 00 00 00 00 00 00
  can0  652   [8]  16 06 00 00 00 00 00 00
  can0  652   [8]  17 06 00 00 00 00 00 00
  can0  652   [8]  18 06 00 00 00 00 00 00
  can0  652   [8]  19 06 00 00 00 00 00 00
  can0  652   [8]  1A 06 00 00 00 00 00 00
  can0  652   [8]  1B 06 00 00 00 00 00 00
  can0  652   [8]  1C 06 00 00 00 00 00 00
  can0  652   [8]  1D 06 00 00 00 00 00 00
  can0  652   [8]  1E 06 00 00 00 00 00 00
  can0  652   [8]  1F 06 00 00 00 00 00 00
  can0  652   [8]  20 06 00 00 00 00 00 00
  can0  652   [8]  21 06 00 00 00 00 00 00
  can0  652   [8]  22 06 00 00 00 00 00 00
  can0  652   [8]  23 06 00 00 00 00 00 00
  can0  652   [8]  24 06 00 00 00 00 00 00
  can0  652   [8]  25 06 00 00 00 00 00 00
  can0  652   [8]  26 06 00 00 00 00 00 00
  can0  652   [8]  27 06 00 00 00 00 00 00
  can0  652   [8]  28 06 00 00 00 00 00 00
  can0  652   [8]  29 06 00 00 00 00 00 00
  can0  652   [8]  2A 06 00 00 00 00 00 00
  can0  652   [8]  2B 06 00 00 00 00 00 00
  can0  652   [8]  2C 06 00 00 00 00 00 00
  can0  652   [8]  2D 06 00 00 00 00 00 00
  can0  652   [8]  2E 06 00 00 00 00 00 00
  can0  652   [8]  2F 06 00 00 00 00 00 00
  can0  652   [8]  30 06 00 00 00 00 00 00
  can0  652   [8]  31 06 00 00 00 00 00 00
  can0  652   [8]  32 06 00 00 00 00 00 00
  can0  652   [8]  33 06 00 00 00 00 00 00
  can0  652   [8]  34 06 00 00 00 00 00 00
  can0  652   [8]  35 06 00 00 00 00 00 00
  can0  652   [8]  36 06 00 00 00 00 00 00
  can0  652   [8]  37 06 00 00 00 00 00 00
  can0  652   [8]  38 06 00 00 00 00 00 00
  can0  652   [8]  39 06 00 00 00 00 00 00
  can0  652   [8]  3A 06 00 00 00 00 00 00
  can0  652   [8]  3B 06 00 00 00 00 00 00
  can0  652   [8]  3C 06 00 00 00 00 00 00
  can0  652   [8]  3D 06 00 00 00 00 00 00
  can0  652   [8]  3E 06 00 00 00 00 00 00
  can0  652   [8]  3F 06 00 00 00 00 00 00
  can0  652   [8]  40 06 00 00 00 00 00 00
  can0  652   [8]  41 06 00 00 00 00 00 00
  can0  652   [8]  42 06 00 00 00 00 00 00
  can0  652   [8]  43 06 00 00 00 00 00 00
  can0  652   [8]  44 06 00 00 00 00 00 00
  can0  652   [8]  45 06 00 00 00 00 00 00
  can0  652   [8]  46 06 00 00 00 00 00 00
  can0  652   [8]  47 06 00 00 00 00 00 00
  can0  652   [8]  48 06 00 00 00 00 00 00
  can0  652   [8]  49 06 00 00 00 00 00 00
  can0  652   [8]  4A 06 00 00 00 00 00 00
  can0  652   [8]  4B 06 00 00 00 00 00 00
  can0  652   [8]  4C 06 00 00 00 00 00 00
  can0  652   [8]  4D 06 00 00 00 00 00 00
  can0  652   [8]  4E 06 00 00 00 00 00 00
  can0  652   [8]  4F 06 00 00 00 00 00 00
  can0  652   [8]  50 06 00 00 00 00 00 00
  can0  652   [8]  51 06 00 00 00 00 00 00
  can0  652   [8]  52 06 00 00 00 00 00 00
  can0  652   [8]  53 06 00 00 00 00 00 00
  can0  652   [8]  54 06 00 00 00 00 00 00
  can0  652   [8]  55 06 00 00 00 00 00 00
  can0  652   [8]  56 06 00 00 00 00 00 00
  can0  652   [8]  57 06 00 00 00 00 00 00
  can0  652   [8]  58 06 00 00 00 00 00 00
  can0  652   [8]  59 06 00 00 00 00 00 00
  can0  652   [8]  5A 06 00 00 00 00 00 00
  can0  652   [8]  5B 06 00 00 00 00 00 00
  can0  652   [8]  5C 06 00 00 00 00 00 00
  can0  652   [8]  5D 06 00 00 00 00 00 00
  can0  652   [8]  5E 06 00 00 00 00 00 00
  can0  652   [8]  5F 06 00 00 00 00 00 00
  can0  652   [8]  60 06 00 00 00 00 00 00
  can0  652   [8]  61 06 00 00 00 00 00 00
  can0  652   [8]  62 06 00 00 00 00 00 00
  can0  652   [8]  63 06 00 00 00 00 00 00
  can0  652   [8]  64 06 00 00 00 00 00 00
  can0  652   [8]  65 06 00 00 00 00 00 00
  can0  652   [8]  66 06 00 00 00 00 00 00
  can0  652   [8]  67 06 00 00 00 00 00 00
  can0  652   [8]  68 06 00 00 00 00 00 00
  can0  652   [8]  69 06 00 00 00 00 00 00
  can0  652   [8]  6A 06 00 00 00 00 00 00
  can0  652   [8]  6B 06 00 00 00 00 00 00
  can0  652   [8]  6C 06 00 00 00 00 00 00
  can0  652   [8]  6D 06 00 00 00 00 00 00
  can0  652   [8]  6E 06 00 00 00 00 00 00
  can0  652   [8]  6F 06 00 00 00 00 00 00
  can0  652   [8]  70 06 00 00 00 00 00 00
  can0  652   [8]  71 06 00 00 00 00 00 00
  can0  652   [8]  72 06 00 00 00 00 00 00
  can0  652   [8]  73 06 00 00 00 00 00 00
  can0  652   [8]  74 06 00 00 00 00 00 00
  can0  652   [8]  75 06 00 00 00 00 00 00
  can0  652   [8]  76 06 00 00 00 00 00 00
  can0  652   [8]  77 06 00 00 00 00 00 00
  can0  652   [8]  78 06 00 00 00 00 00 00
  can0  652   [8]  79 06 00 00 00 00 00 00
  can0  652   [8]  7A 06 00 00 00 00 00 00
  can0  652   [8]  7B 06 00 00 00 00 00 00
  can0  652   [8]  7C 06 00 00 00 00 00 00
  can0  652   [8]  7D 06 00 00 00 00 00 00
  can0  652   [8]  7E 06 00 00 00 00 00 00
  can0  652   [8]  7F 06 00 00 00 00 00 00
  can0  652   [8]  80 06 00 00 00 00 00 00
  can0  652   [8]  81 06 00 00 00 00 00 00
  can0  652   [8]  82 06 00 00 00 00 00 00
  can0  652   [8]  83 06 00 00 00 00 00 00
  can0  652   [8]  84 06 00 00 00 00 00 00
  can0  652   [8]  85 06 00 00 00 00 00 00
  can0  652   [8]  86 06 00 00 00 00 00 00
  can0  652   [8]  87 06 00 00 00 00 00 00
  can0  652   [8]  88 06 00 00 00 00 00 00
  can0  652   [8]  89 06 00 00 00 00 00 00
  can0  652   [8]  8A 06 00 00 00 00 00 00
  can0  652   [8]  8B 06 00 00 00 00 00 00
  can0  652   [8]  8C 06 00 00 00 00 00 00
  can0  652   [8]  8D 06 00 00 00 00 00 00
  can0  652   [8]  8E 06 00 00 00 00 00 00
  can0  652   [8]  8F 06 00 00 00 00 00 00
  can0  652   [8]  90 06 00 00 00 00 00 00
  can0  652   [8]  91 06 00 00 00 00 00 00
  can0  652   [8]  92 06 00 00 00 00 00 00
  can0  652   [8]  93 06 00 00 00 00 00 00
  can0  652   [8]  94 06 00 00 00 00 00 00
  can0  652   [8]  95 06 00 00 00 00 00 00
  can0  652   [8]  96 06 00 00 00 00 00 00
  can0  652   [8]  97 06 00 00 00 00 00 00
  can0  652   [8]  98 06 00 00 00 00 00 00
  can0  652   [8]  99 06 00 00 00 00 00 00
  can0  652   [8]  9A 06 00 00 00 00 00 00
  can0  652   [8]  9B 06 00 00 00 00 00 00
  can0  652   [8]  9C 06 00 00 00 00 00 00
  can0  652   [8]  9D 06 00 00 00 00 00 00
  can0  652   [8]  9E 06 00 00 00 00 00 00
  can0  652   [8]  9F 06 00 00 00 00 00 00
  can0  652   [8]  A0 06 00 00 00 00 00 00
  can0  652   [8]  A1 06 00 00 00 00 00 00
  can0  652   [8]  A2 06 00 00 00 00 00 00
  can0  652   [8]  A3 06 00 00 00 00 00 00
  can0  652   [8]  A4 06 00 00 00 00 00 00
  can0  652   [8]  A5 06 00 00 00 00 00 00
  can0  652   [8]  A6 06 00 00 00 00 00 00
  can0  652   [8]  A7 06 00 00 00 00 00 00
  can0  652   [8]  A8 06 00 00 00 00 00 00
  can0  652   [8]  A9 06 00 00 00 00 00 00
  can0  652   [8]  AA 06 00 00 00 00 00 00
  can0  652   [8]  AB 06 00 00 00 00 00 00
  can0  652   [8]  AC 06 00 00 00 00 00 00
  can0  652   [8]  AD 06 00 00 00 00 00 00
  can0  652   [8]  AE 06 00 00 00 00 00 00
  can0  652   [8]  AF 06 00 00 00 00 00 00
  can0  652   [8]  B0 06 00 00 00 00 00 00
  can0  652   [8]  B1 06 00 00 00 00 00 00
  can0  652   [8]  B2 06 00 00 00 00 00 00
  can0  652   [8]  B3 06 00 00 00 00 00 00
  can0  652   [8]  B4 06 00 00 00 00 00 00
  can0  652   [8]  B5 06 00 00 00 00 00 00
  can0  652   [8]  B6 06 00 00 00 00 00 00
  can0  652   [8]  B7 06 00 00 00 00 00 00
  can0  652   [8]  B8 06 00 00 00 00 00 00
  can0  652   [8]  B9 06 00 00 00 00 00 00
  can0  652   [8]  BA 06 00 00 00 00 00 00
  can0  652   [8]  BB 06 00 00 00 00 00 00
  can0  652   [8]  BC 06 00 00 00 00 00 00
  can0  652   [8]  BD 06 00 00 00 00 00 00
  can0  652   [8]  BE 06 00 00 00 00 00 00
  can0  652   [8]  BF 06 00 00 00 00 00 00
  can0  652   [8]  C0 06 00 00 00 00 00 00
  can0  652   [8]  C1 06 00 00 00 00 00 00
  can0  652   [8]  C2 06 00 00 00 00 00 00
  can0  652   [8]  C3 06 00 00 00 00 00 00
  can0  652   [8]  C4 06 00 00 00 00 00 00
  can0  652   [8]  C5 06 00 00 00 00 00 00
  can0  652   [8]  C6 06 00 00 00 00 00 00
  can0  652   [8]  C7 06 00 00 00 00 00 00
  can0  652   [8]  C8 06 00 00 00 00 00 00
  can0  652   [8]  C9 06 00 00 00 00 00 00
  can0  652   [8]  CA 06 00 00 00 00 00 00
  can0  652   [8]  CB 06 00 00 00 00 00 00
  can0  652   [8]  CC 06 00 00 00 00 00 00
  can0  652   [8]  CD 06 00 00 00 00 00 00
  can0  652   [8]  CE 06 00 00 00 00 00 00
  can0  652   [8]  CF 06 00 00 00 00 00 00
  can0  652   [8]  D0 06 00 00 00 00 00 00
  can0  652   [8]  D1 06 00 00 00 00 00 00
  can0  652   [8]  D2 06 00 00 00 00 00 00
  can0  652   [8]  D3 06 00 00 00 00 00 00
  can0  652   [8]  D4 06 00 00 00 00 00 00
  can0  652   [8]  D5 06 00 00 00 00 00 00
  can0  652   [8]  D6 06 00 00 00 00 00 00
  can0  652   [8]  D7 06 00 00 00 00 00 00
  can0  652   [8]  D8 06 00 00 00 00 00 00
  can0  652   [8]  D9 06 00 00 00 00 00 00
  can0  652   [8]  DA 06 00 00 00 00 00 00
  can0  652   [8]  DB 06 00 00 00 00 00 00
  can0  652   [8]  DC 06 00 00 00 00 00 00
  can0  652   [8]  DD 06 00 00 00 00 00 00
  can0  652   [8]  DE 06 00 00 00 00 00 00
  can0  652   [8]  DF 06 00 00 00 00 00 00
  can0  652   [8]  E0 06 00 00 00 00 00 00
  can0  652   [8]  E1 06 00 00 00 00 00 00
  can0  652   [8]  E2 06 00 00 00 00 00 00
  can0  652   [8]  E3 06 00 00 00 00 00 00
  can0  652   [8]  E4 06 00 00 00 00 00 00
  can0  652   [8]  E5 06 00 00 00 00 00 00
  can0  652   [8]  E6 06 00 00 00 00 00 00
  can0  652   [8]  E7 06 00 00 00 00 00 00
  can0  652   [8]  E8 06 00 00 00 00 00 00
  can0  652   [8]  E9 06 00 00 00 00 00 00
  can0  652   [8]  EA 06 00 00 00 00 00 00
  can0  652   [8]  EB 06 00 00 00 00 00 00
  can0  652   [8]  EC 06 00 00 00 00 00 00
  can0  652   [8]  ED 06 00 00 00 00 00 00
  can0  652   [8]  EE 06 00 00 00 00 00 00
  can0  652   [8]  EF 06 00 00 00 00 00 00
  can0  652   [8]  F0 06 00 00 00 00 00 00
  can0  652   [8]  F1 06 00 00 00 00 00 00
  can0  652   [8]  F2 06 00 00 00 00 00 00
  can0  652   [8]  F3 06 00 00 00 00 00 00
  can0  652   [8]  F4 06 00 00 00 00 00 00
  can0  652   [8]  F5 06 00 00 00 00 00 00
  can0  652   [8]  F6 06 00 00 00 00 00 00
  can0  652   [8]  F7 06 00 00 00 00 00 00
  can0  652   [8]  F8 06 00 00 00 00 00 00
  can0  652   [8]  F9 06 00 00 00 00 00 00
  can0  652   [8]  FA 06 00 00 00 00 00 00
  can0  652   [8]  FB 06 00 00 00 00 00 00
  can0  652   [8]  FC 06 00 00 00 00 00 00
  can0  652   [8]  FD 06 00 00 00 00 00 00
  can0  652   [8]  FE 06 00 00 00 00 00 00
  can0  652   [8]  FF 06 00 00 00 00 00 00
  can0  652   [8]  00 07 00 00 00 00 00 00
  can0  652   [8]  01 07 00 00 00 00 00 00
  can0  652   [8]  02 07 00 00 00 00 00 00
  can0  652   [8]  03 07 00 00 00 00 00 00
  can0  652   [8]  04 07 00 00 00 00 00 00
  can0  652   [8]  05 07 00 00 00 00 00 00
  can0  652   [8]  06 07 00 00 00 00 00 00
  can0  652   [8]  07 07 00 00 00 00 00 00
  can0  652   [8]  08 07 00 00 00 00 00 00
  can0  652   [8]  09 07 00 00 00 00 00 00
  can0  652   [8]  0A 07 00 00 00 00 00 00
  can0  652   [8]  0B 07 00 00 00 00 00 00
  can0  652   [8]  0C 07 00 00 00 00 00 00
  can0  652   [8]  0D 07 00 00 00 00 00 00
  can0  652   [8]  0E 07 00 00 00 00 00 00
  can0  652   [8]  0F 07 00 00 00 00 00 00
  can0  652   [8]  10 07 00 00 00 00 00 00
  can0  652   [8]  11 07 00 00 00 00 00 00
  can0  652   [8]  12 07 00 00 00 00 00 00
  can0  652   [8]  13 07 00 00 00 00 00 00
  can0  652   [8]  14 07 00 00 00 00 00 00
  can0  652   [8]  15 07 00 00 00 00 00 00
  can0  652   [8]  16 07 00 00 00 00 00 00
  can0  652   [8]  17 07 00 00 00 00 00 00
  can0  652   [8]  18 07 00 00 00 00 00 00
  can0  652   [8]  19 07 00 00 00 00 00 00
  can0  652   [8]  1A 07 00 00 00 00 00 00
  can0  652   [8]  1B 07 00 00 00 00 00 00
  can0  652   [8]  1C 07 00 00 00 00 00 00
  can0  652   [8]  1D 07 00 00 00 00 00 00
  can0  652   [8]  1E 07 00 00 00 00 00 00
  can0  652   [8]  1F 07 00 00 00 00 00 00
  can0  652   [8]  20 07 00 00 00 00 00 00
  can0  652   [8]  21 07 00 00 00 00 00 00
  can0  652   [8]  22 07 00 00 00 00 00 00
  can0  652   [8]  23 07 00 00 00 00 00 00
  can0  652   [8]  24 07 00 00 00 00 00 00
  can0  652   [8]  25 07 00 00 00 00 00 00
  can0  652   [8]  26 07 00 00 00 00 00 00
  can0  652   [8]  27 07 00 00 00 00 00 00
  can0  652   [8]  28 07 00 00 00 00 00 00
  can0  652   [8]  29 07 00 00 00 00 00 00
  can0  652   [8]  2A 07 00 00 00 00 00 00
  can0  652   [8]  2B 07 00 00 00 00 00 00
  can0  652   [8]  2C 07 00 00 00 00 00 00
  can0  652   [8]  2D 07 00 00 00 00 00 00
  can0  652   [8]  2E 07 00 00 00 00 00 00
  can0  652   [8]  2F 07 00 00 00 00 00 00
  can0  652   [8]  30 07 00 00 00 00 00 00
  can0  652   [8]  31 07 00 00 00 00 00 00
  can0  652   [8]  32 07 00 00 00 00 00 00
  can0  652   [8]  33 07 00 00 00 00 00 00
  can0  652   [8]  34 07 00 00 00 00 00 00
  can0  652   [8]  35 07 00 00 00 00 00 00
  can0  652   [8]  36 07 00 00 00 00 00 00
  can0  652   [8]  37 07 00 00 00 00 00 00
  can0  652   [8]  38 07 00 00 00 00 00 00
  can0  652   [8]  39 07 00 00 00 00 00 00
  can0  652   [8]  3A 07 00 00 00 00 00 00
  can0  652   [8]  3B 07 00 00 00 00 00 00
  can0  652   [8]  3C 07 00 00 00 00 00 00
  can0  652   [8]  3D 07 00 00 00 00 00 00
  can0  652   [8]  3E 07 00 00 00 00 00 00
  can0  652   [8]  3F 07 00 00 00 00 00 00
  can0  652   [8]  40 07 00 00 00 00 00 00
  can0  652   [8]  41 07 00 00 00 00 00 00
  can0  652   [8]  42 07 00 00 00 00 00 00
  can0  652   [8]  43 07 00 00 00 00 00 00
  can0  652   [8]  44 07 00 00 00 00 00 00
  can0  652   [8]  45 07 00 00 00 00 00 00
  can0  652   [8]  46 07 00 00 00 00 00 00
  can0  652   [8]  47 07 00 00 00 00 00 00
  can0  652   [8]  48 07 00 00 00 00 00 00
  can0  652   [8]  49 07 00 00 00 00 00 00
  can0  652   [8]  4A 07 00 00 00 00 00 00
  can0  652   [8]  4B 07 00 00 00 00 00 00
  can0  652   [8]  4C 07 00 00 00 00 00 00
  can0  652   [8]  4D 07 00 00 00 00 00 00
  can0  652   [8]  4E 07 00 00 00 00 00 00
  can0  652   [8]  4F 07 00 00 00 00 00 00
  can0  652   [8]  50 07 00 00 00 00 00 00
  can0  652   [8]  51 07 00 00 00 00 00 00
  can0  652   [8]  52 07 00 00 00 00 00 00
  can0  652   [8]  53 07 00 00 00 00 00 00
  can0  652   [8]  54 07 00 00 00 00 00 00
  can0  652   [8]  55 07 00 00 00 00 00 00
  can0  652   [8]  56 07 00 00 00 00 00 00
  can0  652   [8]  57 07 00 00 00 00 00 00
  can0  652   [8]  58 07 00 00 00 00 00 00
  can0  652   [8]  59 07 00 00 00 00 00 00
  can0  652   [8]  5A 07 00 00 00 00 00 00
  can0  652   [8]  5B 07 00 00 00 00 00 00
  can0  652   [8]  5C 07 00 00 00 00 00 00
  can0  652   [8]  5D 07 00 00 00 00 00 00
  can0  652   [8]  5E 07 00 00 00 00 00 00
  can0  652   [8]  5F 07 00 00 00 00 00 00
  can0  652   [8]  60 07 00 00 00 00 00 00
  can0  652   [8]  61 07 00 00 00 00 00 00
  can0  652   [8]  62 07 00 00 00 00 00 00
  can0  652   [8]  63 07 00 00 00 00 00 00
  can0  652   [8]  64 07 00 00 00 00 00 00
  can0  652   [8]  65 07 00 00 00 00 00 00
  can0  652   [8]  66 07 00 00 00 00 00 00
  can0  652   [8]  67 07 00 00 00 00 00 00
  can0  652   [8]  68 07 00 00 00 00 00 00
  can0  652   [8]  69 07 00 00 00 00 00 00
  can0  652   [8]  6A 07 00 00 00 00 00 00
  can0  652   [8]  6B 07 00 00 00 00 00 00
  can0  652   [8]  6C 07 00 00 00 00 00 00
  can0  652   [8]  6D 07 00 00 00 00 00 00
  can0  652   [8]  6E 07 00 00 00 00 00 00
  can0  652   [8]  6F 07 00 00 00 00 00 00
  can0  652   [8]  70 07 00 00 00 00 00 00
  can0  652   [8]  71 07 00 00 00 00 00 00
  can0  652   [8]  72 07 00 00 00 00 00 00
  can0  652   [8]  73 07 00 00 00 00 00 00
  can0  652   [8]  74 07 00 00 00 00 00 00
  can0  652   [8]  75 07 00 00 00 00 00 00
  can0  652   [8]  76 07 00 00 00 00 00 00
  can0  652   [8]  77 07 00 00 00 00 00 00
  can0  652   [8]  78 07 00 00 00 00 00 00
  can0  652   [8]  79 07 00 00 00 00 00 00
  can0  652   [8]  7A 07 00 00 00 00 00 00
  can0  652   [8]  7B 07 00 00 00 00 00 00
  can0  652   [8]  7C 07 00 00 00 00 00 00
  can0  652   [8]  7D 07 00 00 00 00 00 00
  can0  652   [8]  7E 07 00 00 00 00 00 00
  can0  652   [8]  7F 07 00 00 00 00 00 00
  can0  652   [8]  80 07 00 00 00 00 00 00
  can0  652   [8]  81 07 00 00 00 00 00 00
  can0  652   [8]  82 07 00 00 00 00 00 00
  can0  652   [8]  83 07 00 00 00 00 00 00
  can0  652   [8]  84 07 00 00 00 00 00 00
  can0  652   [8]  85 07 00 00 00 00 00 00
  can0  652   [8]  86 07 00 00 00 00 00 00
  can0  652   [8]  87 07 00 00 00 00 00 00
  can0  652   [8]  88 07 00 00 00 00 00 00
  can0  652   [8]  89 07 00 00 00 00 00 00
  can0  652   [8]  8A 07 00 00 00 00 00 00
  can0  652   [8]  8B 07 00 00 00 00 00 00
  can0  652   [8]  8C 07 00 00 00 00 00 00
  can0  652   [8]  8D 07 00 00 00 00 00 00
  can0  652   [8]  8E 07 00 00 00 00 00 00
  can0  652   [8]  8F 07 00 00 00 00 00 00
  can0  652   [8]  90 07 00 00 00 00 00 00
  can0  652   [8]  91 07 00 00 00 00 00 00
  can0  652   [8]  92 07 00 00 00 00 00 00
  can0  652   [8]  93 07 00 00 00 00 00 00
  can0  652   [8]  94 07 00 00 00 00 00 00
  can0  652   [8]  95 07 00 00 00 00 00 00
  can0  652   [8]  96 07 00 00 00 00 00 00
  can0  652   [8]  97 07 00 00 00 00 00 00
  can0  652   [8]  98 07 00 00 00 00 00 00
  can0  652   [8]  99 07 00 00 00 00 00 00
  can0  652   [8]  9A 07 00 00 00 00 00 00
  can0  652   [8]  9B 07 00 00 00 00 00 00
  can0  652   [8]  9C 07 00 00 00 00 00 00
  can0  652   [8]  9D 07 00 00 00 00 00 00
  can0  652   [8]  9E 07 00 00 00 00 00 00
  can0  652   [8]  9F 07 00 00 00 00 00 00
  can0  652   [8]  A0 07 00 00 00 00 00 00
  can0  652   [8]  A1 07 00 00 00 00 00 00
  can0  652   [8]  A2 07 00 00 00 00 00 00
  can0  652   [8]  A3 07 00 00 00 00 00 00
  can0  652   [8]  A4 07 00 00 00 00 00 00
  can0  652   [8]  A5 07 00 00 00 00 00 00
  can0  652   [8]  A6 07 00 00 00 00 00 00
  can0  652   [8]  A7 07 00 00 00 00 00 00
  can0  652   [8]  A8 07 00 00 00 00 00 00
  can0  652   [8]  A9 07 00 00 00 00 00 00
  can0  652   [8]  AA 07 00 00 00 00 00 00
  can0  652   [8]  AB 07 00 00 00 00 00 00
  can0  652   [8]  AC 07 00 00 00 00 00 00
  can0  652   [8]  AD 07 00 00 00 00 00 00
  can0  652   [8]  AE 07 00 00 00 00 00 00
  can0  652   [8]  AF 07 00 00 00 00 00 00
  can0  652   [8]  B0 07 00 00 00 00 00 00
  can0  652   [8]  B1 07 00 00 00 00 00 00
  can0  652   [8]  B2 07 00 00 00 00 00 00
  can0  652   [8]  B3 07 00 00 00 00 00 00
  can0  652   [8]  B4 07 00 00 00 00 00 00
  can0  652   [8]  B5 07 00 00 00 00 00 00
  can0  652   [8]  B6 07 00 00 00 00 00 00
  can0  652   [8]  B7 07 00 00 00 00 00 00
  can0  652   [8]  B8 07 00 00 00 00 00 00
  can0  652   [8]  B9 07 00 00 00 00 00 00
  can0  652   [8]  BA 07 00 00 00 00 00 00
  can0  652   [8]  BB 07 00 00 00 00 00 00
  can0  652   [8]  BC 07 00 00 00 00 00 00
  can0  652   [8]  BD 07 00 00 00 00 00 00
  can0  652   [8]  BE 07 00 00 00 00 00 00
  can0  652   [8]  BF 07 00 00 00 00 00 00
  can0  652   [8]  C0 07 00 00 00 00 00 00
  can0  652   [8]  C1 07 00 00 00 00 00 00
  can0  652   [8]  C2 07 00 00 00 00 00 00
  can0  652   [8]  C3 07 00 00 00 00 00 00
  can0  652   [8]  C4 07 00 00 00 00 00 00
  can0  652   [8]  C5 07 00 00 00 00 00 00
  can0  652   [8]  C6 07 00 00 00 00 00 00
  can0  652   [8]  C7 07 00 00 00 00 00 00
  can0  652   [8]  C8 07 00 00 00 00 00 00
  can0  652   [8]  C9 07 00 00 00 00 00 00
  can0  652   [8]  CA 07 00 00 00 00 00 00
  can0  652   [8]  CB 07 00 00 00 00 00 00
  can0  652   [8]  CC 07 00 00 00 00 00 00
  can0  652   [8]  CD 07 00 00 00 00 00 00
  can0  652   [8]  CE 07 00 00 00 00 00 00
  can0  652   [8]  CF 07 00 00 00 00 00 00
  can0  652   [8]  D0 07 00 00 00 00 00 00
  can0  652   [8]  D1 07 00 00 00 00 00 00
  can0  652   [8]  D2 07 00 00 00 00 00 00
  can0  652   [8]  D3 07 00 00 00 00 00 00
  can0  652   [8]  D4 07 00 00 00 00 00 00
  can0  652   [8]  D5 07 00 00 00 00 00 00
  can0  652   [8]  D6 07 00 00 00 00 00 00
  can0  652   [8]  D7 07 00 00 00 00 00 00
  can0  652   [8]  D8 07 00 00 00 00 00 00
  can0  652   [8]  D9 07 00 00 00 00 00 00
  can0  652   [8]  DA 07 00 00 00 00 00 00
  can0  652   [8]  DB 07 00 00 00 00 00 00
  can0  652   [8]  DC 07 00 00 00 00 00 00
  can0  652   [8]  DD 07 00 00 00 00 00 00
  can0  652   [8]  DE 07 00 00 00 00 00 00
  can0  652   [8]  DF 07 00 00 00 00 00 00
  can0  652   [8]  E0 07 00 00 00 00 00 00
  can0  652   [8]  E1 07 00 00 00 00 00 00
  can0  652   [8]  E2 07 00 00 00 00 00 00
  can0  652   [8]  E3 07 00 00 00 00 00 00
  can0  652   [8]  E4 07 00 00 00 00 00 00
  can0  652   [8]  E5 07 00 00 00 00 00 00
  can0  652   [8]  E6 07 00 00 00 00 00 00
  can0  652   [8]  E7 07 00 00 00 00 00 00
  can0  652   [8]  E8 07 00 00 00 00 00 00
  can0  652   [8]  E9 07 00 00 00 00 00 00
  can0  652   [8]  EA 07 00 00 00 00 00 00
  can0  652   [8]  EB 07 00 00 00 00 00 00
  can0  652   [8]  EC 07 00 00 00 00 00 00
  can0  652   [8]  ED 07 00 00 00 00 00 00
  can0  652   [8]  EE 07 00 00 00 00 00 00
  can0  652   [8]  EF 07 00 00 00 00 00 00
  can0  652   [8]  F0 07 00 00 00 00 00 00
  can0  652   [8]  F1 07 00 00 00 00 00 00
  can0  652   [8]  F2 07 00 00 00 00 00 00
  can0  652   [8]  F3 07 00 00 00 00 00 00
  can0  652   [8]  F4 07 00 00 00 00 00 00
  can0  652   [8]  F5 07 00 00 00 00 00 00
  can0  652   [8]  F6 07 00 00 00 00 00 00
  can0  652   [8]  F7 07 00 00 00 00 00 00
  can0  652   [8]  F8 07 00 00 00 00 00 00
  can0  652   [8]  F9 07 00 00 00 00 00 00
  can0  652   [8]  FA 07 00 00 00 00 00 00
  can0  652   [8]  FB 07 00 00 00 00 00 00
  can0  652   [8]  FC 07 00 00 00 00 00 00
  can0  652   [8]  FD 07 00 00 00 00 00 00
  can0  652   [8]  FE 07 00 00 00 00 00 00
  can0  652   [8]  FF 07 00 00 00 00 00 00
  can0  652   [8]  00 08 00 00 00 00 00 00
  can0  652   [8]  01 08 00 00 00 00 00 00
  can0  652   [8]  02 08 00 00 00 00 00 00
  can0  652   [8]  03 08 00 00 00 00 00 00
  can0  652   [8]  04 08 00 00 00 00 00 00
  can0  652   [8]  05 08 00 00 00 00 00 00
  can0  652   [8]  06 08 00 00 00 00 00 00
  can0  652   [8]  07 08 00 00 00 00 00 00
  can0  652   [8]  08 08 00 00 00 00 00 00
  can0  652   [8]  09 08 00 00 00 00 00 00
  can0  652   [8]  0A 08 00 00 00 00 00 00
  can0  652   [8]  0B 08 00 00 00 00 00 00
  can0  652   [8]  0C 08 00 00 00 00 00 00
  can0  652   [8]  0D 08 00 00 00 00 00 00
  can0  652   [8]  0E 08 00 00 00 00 00 00
  can0  652   [8]  0F 08 00 00 00 00 00 00
  can0  652   [8]  10 08 00 00 00 00 00 00
  can0  652   [8]  11 08 00 00 00 00 00 00
  can0  652   [8]  12 08 00 00 00 00 00 00
  can0  652   [8]  13 08 00 00 00 00 00 00
  can0  652   [8]  14 08 00 00 00 00 00 00
  can0  652   [8]  15 08 00 00 00 00 00 00
  can0  652   [8]  16 08 00 00 00 00 00 00
  can0  652   [8]  17 08 00 00 00 00 00 00
  can0  652   [8]  18 08 00 00 00 00 00 00
  can0  652   [8]  19 08 00 00 00 00 00 00
  can0  652   [8]  1A 08 00 00 00 00 00 00
  can0  652   [8]  1B 08 00 00 00 00 00 00
  can0  652   [8]  1C 08 00 00 00 00 00 00
  can0  652   [8]  1D 08 00 00 00 00 00 00
  can0  652   [8]  1E 08 00 00 00 00 00 00
  can0  652   [8]  1F 08 00 00 00 00 00 00
  can0  652   [8]  20 08 00 00 00 00 00 00
  can0  652   [8]  21 08 00 00 00 00 00 00
  can0  652   [8]  22 08 00 00 00 00 00 00
  can0  652   [8]  23 08 00 00 00 00 00 00
  can0  652   [8]  24 08 00 00 00 00 00 00
  can0  652   [8]  25 08 00 00 00 00 00 00
  can0  652   [8]  26 08 00 00 00 00 00 00
  can0  652   [8]  27 08 00 00 00 00 00 00
  can0  652   [8]  28 08 00 00 00 00 00 00
  can0  652   [8]  29 08 00 00 00 00 00 00
  can0  652   [8]  2A 08 00 00 00 00 00 00
  can0  652   [8]  2B 08 00 00 00 00 00 00
  can0  652   [8]  2C 08 00 00 00 00 00 00
  can0  652   [8]  2D 08 00 00 00 00 00 00
  can0  652   [8]  2E 08 00 00 00 00 00 00
  can0  652   [8]  2F 08 00 00 00 00 00 00
  can0  652   [8]  30 08 00 00 00 00 00 00
  can0  652   [8]  31 08 00 00 00 00 00 00
  can0  652   [8]  32 08 00 00 00 00 00 00
  can0  652   [8]  33 08 00 00 00 00 00 00
  can0  652   [8]  34 08 00 00 00 00 00 00
  can0  652   [8]  35 08 00 00 00 00 00 00
  can0  652   [8]  36 08 00 00 00 00 00 00
  can0  652   [8]  37 08 00 00 00 00 00 00
  can0  652   [8]  38 08 00 00 00 00 00 00
  can0  652   [8]  39 08 00 00 00 00 00 00
  can0  652   [8]  3A 08 00 00 00 00 00 00
  can0  652   [8]  3B 08 00 00 00 00 00 00
  can0  652   [8]  3C 08 00 00 00 00 00 00
  can0  652   [8]  3D 08 00 00 00 00 00 00
  can0  652   [8]  3E 08 00 00 00 00 00 00
  can0  652   [8]  3F 08 00 00 00 00 00 00
  can0  652   [8]  40 08 00 00 00 00 00 00
  can0  652   [8]  41 08 00 00 00 00 00 00
  can0  652   [8]  42 08 00 00 00 00 00 00
  can0  652   [8]  43 08 00 00 00 00 00 00
  can0  652   [8]  44 08 00 00 00 00 00 00
  can0  652   [8]  45 08 00 00 00 00 00 00
  can0  652   [8]  46 08 00 00 00 00 00 00
  can0  652   [8]  47 08 00 00 00 00 00 00
  can0  652   [8]  48 08 00 00 00 00 00 00
  can0  652   [8]  49 08 00 00 00 00 00 00
  can0  652   [8]  4A 08 00 00 00 00 00 00
  can0  652   [8]  4B 08 00 00 00 00 00 00
  can0  652   [8]  4C 08 00 00 00 00 00 00
  can0  652   [8]  4D 08 00 00 00 00 00 00
  can0  652   [8]  4E 08 00 00 00 00 00 00
  can0  652   [8]  4F 08 00 00 00 00 00 00
  can0  652   [8]  50 08 00 00 00 00 00 00
  can0  652   [8]  51 08 00 00 00 00 00 00
  can0  652   [8]  52 08 00 00 00 00 00 00
  can0  652   [8]  53 08 00 00 00 00 00 00
  can0  652   [8]  54 08 00 00 00 00 00 00
  can0  652   [8]  55 08 00 00 00 00 00 00
  can0  652   [8]  56 08 00 00 00 00 00 00
  can0  652   [8]  57 08 00 00 00 00 00 00
  can0  652   [8]  58 08 00 00 00 00 00 00
  can0  652   [8]  59 08 00 00 00 00 00 00
  can0  652   [8]  5A 08 00 00 00 00 00 00
  can0  652   [8]  5B 08 00 00 00 00 00 00
  can0  652   [8]  5C 08 00 00 00 00 00 00
  can0  652   [8]  5D 08 00 00 00 00 00 00
  can0  652   [8]  5E 08 00 00 00 00 00 00
  can0  652   [8]  5F 08 00 00 00 00 00 00
  can0  652   [8]  60 08 00 00 00 00 00 00
  can0  652   [8]  61 08 00 00 00 00 00 00
  can0  652   [8]  62 08 00 00 00 00 00 00
  can0  652   [8]  63 08 00 00 00 00 00 00
  can0  652   [8]  64 08 00 00 00 00 00 00
  can0  652   [8]  65 08 00 00 00 00 00 00
  can0  652   [8]  66 08 00 00 00 00 00 00
  can0  652   [8]  67 08 00 00 00 00 00 00
  can0  652   [8]  68 08 00 00 00 00 00 00
  can0  652   [8]  69 08 00 00 00 00 00 00
  can0  652   [8]  6A 08 00 00 00 00 00 00
  can0  652   [8]  6B 08 00 00 00 00 00 00
  can0  652   [8]  6C 08 00 00 00 00 00 00
  can0  652   [8]  6D 08 00 00 00 00 00 00
  can0  652   [8]  6E 08 00 00 00 00 00 00
  can0  652   [8]  6F 08 00 00 00 00 00 00
  can0  652   [8]  70 08 00 00 00 00 00 00
  can0  652   [8]  71 08 00 00 00 00 00 00
  can0  652   [8]  72 08 00 00 00 00 00 00
  can0  652   [8]  73 08 00 00 00 00 00 00
  can0  652   [8]  74 08 00 00 00 00 00 00
  can0  652   [8]  75 08 00 00 00 00 00 00
  can0  652   [8]  76 08 00 00 00 00 00 00
  can0  652   [8]  77 08 00 00 00 00 00 00
  can0  652   [8]  78 08 00 00 00 00 00 00
  can0  652   [8]  79 08 00 00 00 00 00 00
  can0  652   [8]  7A 08 00 00 00 00 00 00
  can0  652   [8]  7B 08 00 00 00 00 00 00
  can0  652   [8]  7C 08 00 00 00 00 00 00
  can0  652   [8]  7D 08 00 00 00 00 00 00
  can0  652   [8]  7E 08 00 00 00 00 00 00
  can0  652   [8]  7F 08 00 00 00 00 00 00
  can0  652   [8]  80 08 00 00 00 00 00 00
  can0  652   [8]  81 08 00 00 00 00 00 00
  can0  652   [8]  82 08 00 00 00 00 00 00
  can0  652   [8]  83 08 00 00 00 00 00 00
  can0  652   [8]  84 08 00 00 00 00 00 00
  can0  652   [8]  85 08 00 00 00 00 00 00
  can0  652   [8]  86 08 00 00 00 00 00 00
  can0  652   [8]  87 08 00 00 00 00 00 00
  can0  652   [8]  88 08 00 00 00 00 00 00
  can0  652   [8]  89 08 00 00 00 00 00 00
  can0  652   [8]  8A 08 00 00 00 00 00 00
  can0  652   [8]  8B 08 00 00 00 00 00 00
  can0  652   [8]  8C 08 00 00 00 00 00 00
  can0  652   [8]  8D 08 00 00 00 00 00 00
  can0  652   [8]  8E 08 00 00 00 00 00 00
  can0  652   [8]  8F 08 00 00 00 00 00 00
  can0  652   [8]  90 08 00 00 00 00 00 00
  can0  652   [8]  91 08 00 00 00 00 00 00
  can0  652   [8]  92 08 00 00 00 00 00 00
  can0  652   [8]  93 08 00 00 00 00 00 00
  can0  652   [8]  94 08 00 00 00 00 00 00
  can0  652   [8]  95 08 00 00 00 00 00 00
  can0  652   [8]  96 08 00 00 00 00 00 00
  can0  652   [8]  97 08 00 00 00 00 00 00
  can0  652   [8]  98 08 00 00 00 00 00 00
  can0  652   [8]  99 08 00 00 00 00 00 00
  can0  652   [8]  9A 08 00 00 00 00 00 00
  can0  652   [8]  9B 08 00 00 00 00 00 00
  can0  652   [8]  9C 08 00 00 00 00 00 00
  can0  652   [8]  9D 08 00 00 00 00 00 00
  can0  652   [8]  9E 08 00 00 00 00 00 00
  can0  652   [8]  9F 08 00 00 00 00 00 00
  can0  652   [8]  A0 08 00 00 00 00 00 00
  can0  652   [8]  A1 08 00 00 00 00 00 00
  can0  652   [8]  A2 08 00 00 00 00 00 00
  can0  652   [8]  A3 08 00 00 00 00 00 00
  can0  652   [8]  A4 08 00 00 00 00 00 00
  can0  652   [8]  A5 08 00 00 00 00 00 00
  can0  652   [8]  A6 08 00 00 00 00 00 00
  can0  652   [8]  A7 08 00 00 00 00 00 00
  can0  652   [8]  A8 08 00 00 00 00 00 00
  can0  652   [8]  A9 08 00 00 00 00 00 00
  can0  652   [8]  AA 08 00 00 00 00 00 00
  can0  652   [8]  AB 08 00 00 00 00 00 00
  can0  652   [8]  AC 08 00 00 00 00 00 00
  can0  652   [8]  AD 08 00 00 00 00 00 00
  can0  652   [8]  AE 08 00 00 00 00 00 00
  can0  652   [8]  AF 08 00 00 00 00 00 00
  can0  652   [8]  B0 08 00 00 00 00 00 00
  can0  652   [8]  B1 08 00 00 00 00 00 00
  can0  652   [8]  B2 08 00 00 00 00 00 00
  can0  652   [8]  B3 08 00 00 00 00 00 00
  can0  652   [8]  B4 08 00 00 00 00 00 00
  can0  652   [8]  B5 08 00 00 00 00 00 00
  can0  652   [8]  B6 08 00 00 00 00 00 00
  can0  652   [8]  B7 08 00 00 00 00 00 00
  can0  652   [8]  B8 08 00 00 00 00 00 00
  can0  652   [8]  B9 08 00 00 00 00 00 00
  can0  652   [8]  BA 08 00 00 00 00 00 00
  can0  652   [8]  BB 08 00 00 00 00 00 00
  can0  652   [8]  BC 08 00 00 00 00 00 00
  can0  652   [8]  BD 08 00 00 00 00 00 00
  can0  652   [8]  BE 08 00 00 00 00 00 00
  can0  652   [8]  BF 08 00 00 00 00 00 00
  can0  652   [8]  C0 08 00 00 00 00 00 00
  can0  652   [8]  C1 08 00 00 00 00 00 00
  can0  652   [8]  C2 08 00 00 00 00 00 00
  can0  652   [8]  C3 08 00 00 00 00 00 00
  can0  652   [8]  C4 08 00 00 00 00 00 00
  can0  652   [8]  C5 08 00 00 00 00 00 00
  can0  652   [8]  C6 08 00 00 00 00 00 00
  can0  652   [8]  C7 08 00 00 00 00 00 00
  can0  652   [8]  C8 08 00 00 00 00 00 00
  can0  652   [8]  C9 08 00 00 00 00 00 00
  can0  652   [8]  CA 08 00 00 00 00 00 00
  can0  652   [8]  CB 08 00 00 00 00 00 00
  can0  652   [8]  CC 08 00 00 00 00 00 00
  can0  652   [8]  CD 08 00 00 00 00 00 00
  can0  652   [8]  CE 08 00 00 00 00 00 00
  can0  652   [8]  CF 08 00 00 00 00 00 00
  can0  652   [8]  D0 08 00 00 00 00 00 00
  can0  652   [8]  D1 08 00 00 00 00 00 00
  can0  652   [8]  D2 08 00 00 00 00 00 00
  can0  652   [8]  D3 08 00 00 00 00 00 00
  can0  652   [8]  D4 08 00 00 00 00 00 00
  can0  652   [8]  D5 08 00 00 00 00 00 00
  can0  652   [8]  D6 08 00 00 00 00 00 00
  can0  652   [8]  D7 08 00 00 00 00 00 00
  can0  652   [8]  D8 08 00 00 00 00 00 00
  can0  652   [8]  D9 08 00 00 00 00 00 00
  can0  652   [8]  DA 08 00 00 00 00 00 00
  can0  652   [8]  DB 08 00 00 00 00 00 00
  can0  652   [8]  DC 08 00 00 00 00 00 00
  can0  652   [8]  DD 08 00 00 00 00 00 00
  can0  652   [8]  DE 08 00 00 00 00 00 00
  can0  652   [8]  DF 08 00 00 00 00 00 00
  can0  652   [8]  E0 08 00 00 00 00 00 00
  can0  652   [8]  E1 08 00 00 00 00 00 00
  can0  652   [8]  E2 08 00 00 00 00 00 00
  can0  652   [8]  E3 08 00 00 00 00 00 00
  can0  652   [8]  E4 08 00 00 00 00 00 00
  can0  652   [8]  E5 08 00 00 00 00 00 00
  can0  652   [8]  E6 08 00 00 00 00 00 00
  can0  652   [8]  E7 08 00 00 00 00 00 00
  can0  652   [8]  E8 08 00 00 00 00 00 00
  can0  652   [8]  E9 08 00 00 00 00 00 00
  can0  652   [8]  EA 08 00 00 00 00 00 00
  can0  652   [8]  EB 08 00 00 00 00 00 00
  can0  652   [8]  EC 08 00 00 00 00 00 00
  can0  652   [8]  ED 08 00 00 00 00 00 00
  can0  652   [8]  EE 08 00 00 00 00 00 00
  can0  652   [8]  EF 08 00 00 00 00 00 00
  can0  652   [8]  F0 08 00 00 00 00 00 00
  can0  652   [8]  F1 08 00 00 00 00 00 00
  can0  652   [8]  F2 08 00 00 00 00 00 00
  can0  652   [8]  F3 08 00 00 00 00 00 00
  can0  652   [8]  F4 08 00 00 00 00 00 00
  can0  652   [8]  F5 08 00 00 00 00 00 00
  can0  652   [8]  F6 08 00 00 00 00 00 00
  can0  652   [8]  F7 08 00 00 00 00 00 00
  can0  652   [8]  F8 08 00 00 00 00 00 00
  can0  652   [8]  F9 08 00 00 00 00 00 00
  can0  652   [8]  FA 08 00 00 00 00 00 00
  can0  652   [8]  FB 08 00 00 00 00 00 00
  can0  652   [8]  FC 08 00 00 00 00 00 00
  can0  652   [8]  FD 08 00 00 00 00 00 00
  can0  652   [8]  FE 08 00 00 00 00 00 00
  can0  652   [8]  FF 08 00 00 00 00 00 00
  can0  652   [8]  00 09 00 00 00 00 00 00
  can0  652   [8]  01 09 00 00 00 00 00 00
  can0  652   [8]  02 09 00 00 00 00 00 00
  can0  652   [8]  03 09 00 00 00 00 00 00
  can0  652   [8]  04 09 00 00 00 00 00 00
  can0  652   [8]  05 09 00 00 00 00 00 00
  can0  652   [8]  06 09 00 00 00 00 00 00
  can0  652   [8]  07 09 00 00 00 00 00 00
  can0  652   [8]  08 09 00 00 00 00 00 00
  can0  652   [8]  09 09 00 00 00 00 00 00
  can0  652   [8]  0A 09 00 00 00 00 00 00
  can0  652   [8]  0B 09 00 00 00 00 00 00
  can0  652   [8]  0C 09 00 00 00 00 00 00
  can0  652   [8]  0D 09 00 00 00 00 00 00
  can0  652   [8]  0E 09 00 00 00 00 00 00
  can0  652   [8]  0F 09 00 00 00 00 00 00
  can0  652   [8]  10 09 00 00 00 00 00 00
  can0  652   [8]  11 09 00 00 00 00 00 00
  can0  652   [8]  12 09 00 00 00 00 00 00
  can0  652   [8]  13 09 00 00 00 00 00 00
  can0  652   [8]  14 09 00 00 00 00 00 00
