  can0  700   [2]  01 01
  can0  700   [3]  02 02 00
  can0  700   [4]  03 03 00 00
  can0  700   [5]  04 04 00 00 00
  can0  700   [6]  05 05 00 00 00 00
  can0  700   [7]  06 06 00 00 00 00 00
  can0  700   [8]  07 07 00 00 00 00 00 00
  can0  700   [8]  10 08 08 00 00 00 00 00
  can0  701   [3]  30 00 00
  can0  700   [3]  21 00 00
  can0  700   [8]  10 09 09 00 00 00 00 00
  can0  701   [3]  30 00 00
  can0  700   [4]  21 00 00 00
  can0  700   [8]  10 0A 0A 00 00 00 00 00
  can0  701   [3]  30 00 00
  can0  700   [5]  21 00 00 00 00
  can0  700   [8]  10 0B 0B 00 00 00 00 00
  can0  701   [3]  30 00 00
  can0  700   [6]  21 00 00 00 00 00
  can0  700   [8]  10 0C 0C 00 00 00 00 00
  can0  701   [3]  30 00 00
  can0  700   [7]  21 00 00 00 00 00 00
  can0  700   [8]  10 0D 0D 00 00 00 00 00
  can0  701   [3]  30 00 00
  can0  700   [8]  21 00 00 00 00 00 00 00
  can0  700   [8]  10 0E 0E 00 00 00 00 00
  can0  701   [3]  30 00 00
  can0  700   [8]  21 00 00 00 00 00 00 00
  can0  700   [2]  22 00
  can0  700   [8]  10 0F 0F 00 00 00 00 00
  can0  701   [3]  30 00 00
  can0  700   [8]  21 00 00 00 00 00 00 00
  can0  700   [3]  22 00 00
  can0  700   [8]  10 10 10 00 00 00 00 00
  can0  701   [3]  30 00 00
  can0  700   [8]  21 00 00 00 00 00 00 00
  can0  700   [4]  22 00 00 00
  can0  700   [8]  10 11 11 00 00 00 00 00
  can0  701   [3]  30 00 00
  can0  700   [8]  21 00 00 00 00 00 00 00
  can0  700   [5]  22 00 00 00 00
  can0  700   [8]  10 12 12 00 00 00 00 00
  can0  701   [3]  30 00 00
  can0  700   [8]  21 00 00 00 00 00 00 00
  can0  700   [6]  22 00 00 00 00 00
  can0  700   [8]  10 13 13 00 00 00 00 00
  can0  701   [3]  30 00 00
  can0  700   [8]  21 00 00 00 00 00 00 00
  can0  700   [7]  22 00 00 00 00 00 00
  can0  700   [8]  10 14 14 00 00 00 00 00
  can0  701   [3]  30 00 00
  can0  700   [8]  21 00 00 00 00 00 00 00
  can0  700   [8]  22 00 00 00 00 00 00 00
  can0  700   [8]  10 15 15 00 00 00 00 00
  can0  701   [3]  30 00 00
  can0  700   [8]  21 00 00 00 00 00 00 00
  can0  700   [8]  22 00 00 00 00 00 00 00
  can0  700   [2]  23 00
  can0  700   [8]  10 16 16 00 00 00 00 00
  can0  701   [3]  30 00 00
  can0  700   [8]  21 00 00 00 00 00 00 00
  can0  700   [8]  22 00 00 00 00 00 00 00
  can0  700   [3]  23 00 00
  can0  700   [8]  10 17 17 00 00 00 00 00
  can0  701   [3]  30 00 00
  can0  700   [8]  21 00 00 00 00 00 00 00
  can0  700   [8]  22 00 00 00 00 00 00 00
  can0  700   [4]  23 00 00 00
  can0  700   [8]  10 18 18 00 00 00 00 00
  can0  701   [3]  30 00 00
  can0  700   [8]  21 00 00 00 00 00 00 00
  can0  700   [8]  22 00 00 00 00 00 00 00
  can0  700   [5]  23 00 00 00 00
  can0  700   [8]  10 19 19 00 00 00 00 00
  can0  701   [3]  30 00 00
  can0  700   [8]  21 00 00 00 00 00 00 00
  can0  700   [8]  22 00 00 00 00 00 00 00
  can0  700   [6]  23 00 00 00 00 00
  can0  700   [8]  10 1A 1A 00 00 00 00 00
  can0  701   [3]  30 00 00
  can0  700   [8]  21 00 00 00 00 00 00 00
  can0  700   [8]  22 00 00 00 00 00 00 00
  can0  700   [7]  23 00 00 00 00 00 00
  can0  700   [8]  10 1B 1B 00 00 00 00 00
  can0  701   [3]  30 00 00
  can0  700   [8]  21 00 00 00 00 00 00 00
  can0  700   [8]  22 00 00 00 00 00 00 00
  can0  700   [8]  23 00 00 00 00 00 00 00
  can0  700   [8]  10 1C 1C 00 00 00 00 00
  can0  701   [3]  30 00 00
  can0  700   [8]  21 00 00 00 00 00 00 00
  can0  700   [8]  22 00 00 00 00 00 00 00
  can0  700   [8]  23 00 00 00 00 00 00 00
  can0  700   [2]  24 00
  can0  700   [8]  10 1D 1D 00 00 00 00 00
  can0  701   [3]  30 00 00
  can0  700   [8]  21 00 00 00 00 00 00 00
  can0  700   [8]  22 00 00 00 00 00 00 00
  can0  700   [8]  23 00 00 00 00 00 00 00
  can0  700   [3]  24 00 00
  can0  700   [8]  10 1E 1E 00 00 00 00 00
  can0  701   [3]  30 00 00
  can0  700   [8]  21 00 00 00 00 00 00 00
  can0  700   [8]  22 00 00 00 00 00 00 00
  can0  700   [8]  23 00 00 00 00 00 00 00
  can0  700   [4]  24 00 00 00
  can0  700   [8]  10 1F 1F 00 00 00 00 00
  can0  701   [3]  30 00 00
  can0  700   [8]  21 00 00 00 00 00 00 00
  can0  700   [8]  22 00 00 00 00 00 00 00
  can0  700   [8]  23 00 00 00 00 00 00 00
  can0  700   [5]  24 00 00 00 00
  can0  700   [8]  10 20 20 00 00 00 00 00
  can0  701   [3]  30 00 00
  can0  700   [8]  21 00 00 00 00 00 00 00
  can0  700   [8]  22 00 00 00 00 00 00 00
  can0  700   [8]  23 00 00 00 00 00 00 00
  can0  700   [6]  24 00 00 00 00 00
  can0  700   [8]  10 21 21 00 00 00 00 00
  can0  701   [3]  30 00 00
  can0  700   [8]  21 00 00 00 00 00 00 00
  can0  700   [8]  22 00 00 00 00 00 00 00
  can0  700   [8]  23 00 00 00 00 00 00 00
  can0  700   [7]  24 00 00 00 00 00 00
  can0  700   [8]  10 22 22 00 00 00 00 00
  can0  701   [3]  30 00 00
  can0  700   [8]  21 00 00 00 00 00 00 00
  can0  700   [8]  22 00 00 00 00 00 00 00
  can0  700   [8]  23 00 00 00 00 00 00 00
  can0  700   [8]  24 00 00 00 00 00 00 00
  can0  700   [8]  10 23 23 00 00 00 00 00
  can0  701   [3]  30 00 00
  can0  700   [8]  21 00 00 00 00 00 00 00
  can0  700   [8]  22 00 00 00 00 00 00 00
  can0  700   [8]  23 00 00 00 00 00 00 00
  can0  700   [8]  24 00 00 00 00 00 00 00
  can0  700   [2]  25 00
  can0  700   [8]  10 24 24 00 00 00 00 00
  can0  701   [3]  30 00 00
  can0  700   [8]  21 00 00 00 00 00 00 00
  can0  700   [8]  22 00 00 00 00 00 00 00
  can0  700   [8]  23 00 00 00 00 00 00 00
  can0  700   [8]  24 00 00 00 00 00 00 00
  can0  700   [3]  25 00 00
  can0  700   [8]  10 25 25 00 00 00 00 00
  can0  701   [3]  30 00 00
  can0  700   [8]  21 00 00 00 00 00 00 00
  can0  700   [8]  22 00 00 00 00 00 00 00
  can0  700   [8]  23 00 00 00 00 00 00 00
  can0  700   [8]  24 00 00 00 00 00 00 00
  can0  700   [4]  25 00 00 00
  can0  700   [8]  10 26 26 00 00 00 00 00
  can0  701   [3]  30 00 00
  can0  700   [8]  21 00 00 00 00 00 00 00
  can0  700   [8]  22 00 00 00 00 00 00 00
  can0  700   [8]  23 00 00 00 00 00 00 00
  can0  700   [8]  24 00 00 00 00 00 00 00
  can0  700   [5]  25 00 00 00 00
  can0  700   [8]  10 27 27 00 00 00 00 00
  can0  701   [3]  30 00 00
  can0  700   [8]  21 00 00 00 00 00 00 00
  can0  700   [8]  22 00 00 00 00 00 00 00
  can0  700   [8]  23 00 00 00 00 00 00 00
  can0  700   [8]  24 00 00 00 00 00 00 00
  can0  700   [6]  25 00 00 00 00 00
  can0  700   [8]  10 28 28 00 00 00 00 00
  can0  701   [3]  30 00 00
  can0  700   [8]  21 00 00 00 00 00 00 00
  can0  700   [8]  22 00 00 00 00 00 00 00
  can0  700   [8]  23 00 00 00 00 00 00 00
  can0  700   [8]  24 00 00 00 00 00 00 00
  can0  700   [7]  25 00 00 00 00 00 00
  can0  700   [8]  10 29 29 00 00 00 00 00
  can0  701   [3]  30 00 00
  can0  700   [8]  21 00 00 00 00 00 00 00
  can0  700   [8]  22 00 00 00 00 00 00 00
  can0  700   [8]  23 00 00 00 00 00 00 00
  can0  700   [8]  24 00 00 00 00 00 00 00
  can0  700   [8]  25 00 00 00 00 00 00 00
  can0  700   [8]  10 2A 2A 00 00 00 00 00
  can0  701   [3]  30 00 00
  can0  700   [8]  21 00 00 00 00 00 00 00
  can0  700   [8]  22 00 00 00 00 00 00 00
  can0  700   [8]  23 00 00 00 00 00 00 00
  can0  700   [8]  24 00 00 00 00 00 00 00
  can0  700   [8]  25 00 00 00 00 00 00 00
  can0  700   [2]  26 00
  can0  700   [8]  10 2B 2B 00 00 00 00 00
  can0  701   [3]  30 00 00
  can0  700   [8]  21 00 00 00 00 00 00 00
  can0  700   [8]  22 00 00 00 00 00 00 00
  can0  700   [8]  23 00 00 00 00 00 00 00
  can0  700   [8]  24 00 00 00 00 00 00 00
  can0  700   [8]  25 00 00 00 00 00 00 00
  can0  700   [3]  26 00 00
  can0  700   [8]  10 2C 2C 00 00 00 00 00
  can0  701   [3]  30 00 00
  can0  700   [8]  21 00 00 00 00 00 00 00
  can0  700   [8]  22 00 00 00 00 00 00 00
  can0  700   [8]  23 00 00 00 00 00 00 00
  can0  700   [8]  24 00 00 00 00 00 00 00
  can0  700   [8]  25 00 00 00 00 00 00 00
  can0  700   [4]  26 00 00 00
  can0  700   [8]  10 2D 2D 00 00 00 00 00
  can0  701   [3]  30 00 00
  can0  700   [8]  21 00 00 00 00 00 00 00
  can0  700   [8]  22 00 00 00 00 00 00 00
  can0  700   [8]  23 00 00 00 00 00 00 00
  can0  700   [8]  24 00 00 00 00 00 00 00
  can0  700   [8]  25 00 00 00 00 00 00 00
  can0  700   [5]  26 00 00 00 00
  can0  700   [8]  10 2E 2E 00 00 00 00 00
  can0  701   [3]  30 00 00
  can0  700   [8]  21 00 00 00 00 00 00 00
  can0  700   [8]  22 00 00 00 00 00 00 00
  can0  700   [8]  23 00 00 00 00 00 00 00
  can0  700   [8]  24 00 00 00 00 00 00 00
  can0  700   [8]  25 00 00 00 00 00 00 00
  can0  700   [6]  26 00 00 00 00 00
  can0  700   [8]  10 2F 2F 00 00 00 00 00
  can0  701   [3]  30 00 00
  can0  700   [8]  21 00 00 00 00 00 00 00
  can0  700   [8]  22 00 00 00 00 00 00 00
  can0  700   [8]  23 00 00 00 00 00 00 00
  can0  700   [8]  24 00 00 00 00 00 00 00
  can0  700   [8]  25 00 00 00 00 00 00 00
  can0  700   [7]  26 00 00 00 00 00 00
  can0  700   [8]  10 30 30 00 00 00 00 00
  can0  701   [3]  30 00 00
  can0  700   [8]  21 00 00 00 00 00 00 00
  can0  700   [8]  22 00 00 00 00 00 00 00
  can0  700   [8]  23 00 00 00 00 00 00 00
  can0  700   [8]  24 00 00 00 00 00 00 00
  can0  700   [8]  25 00 00 00 00 00 00 00
  can0  700   [8]  26 00 00 00 00 00 00 00
  can0  700   [8]  10 31 31 00 00 00 00 00
  can0  701   [3]  30 00 00
  can0  700   [8]  21 00 00 00 00 00 00 00
  can0  700   [8]  22 00 00 00 00 00 00 00
  can0  700   [8]  23 00 00 00 00 00 00 00
  can0  700   [8]  24 00 00 00 00 00 00 00
  can0  700   [8]  25 00 00 00 00 00 00 00
  can0  700   [8]  26 00 00 00 00 00 00 00
  can0  700   [2]  27 00
  can0  700   [8]  10 32 32 00 00 00 00 00
  can0  701   [3]  30 00 00
  can0  700   [8]  21 00 00 00 00 00 00 00
  can0  700   [8]  22 00 00 00 00 00 00 00
  can0  700   [8]  23 00 00 00 00 00 00 00
  can0  700   [8]  24 00 00 00 00 00 00 00
  can0  700   [8]  25 00 00 00 00 00 00 00
  can0  700   [8]  26 00 00 00 00 00 00 00
  can0  700   [3]  27 00 00
  can0  700   [8]  10 33 33 00 00 00 00 00
  can0  701   [3]  30 00 00
  can0  700   [8]  21 00 00 00 00 00 00 00
  can0  700   [8]  22 00 00 00 00 00 00 00
  can0  700   [8]  23 00 00 00 00 00 00 00
  can0  700   [8]  24 00 00 00 00 00 00 00
  can0  700   [8]  25 00 00 00 00 00 00 00
  can0  700   [8]  26 00 00 00 00 00 00 00
  can0  700   [4]  27 00 00 00
  can0  700   [8]  10 34 34 00 00 00 00 00
  can0  701   [3]  30 00 00
  can0  700   [8]  21 00 00 00 00 00 00 00
  can0  700   [8]  22 00 00 00 00 00 00 00
  can0  700   [8]  23 00 00 00 00 00 00 00
  can0  700   [8]  24 00 00 00 00 00 00 00
  can0  700   [8]  25 00 00 00 00 00 00 00
  can0  700   [8]  26 00 00 00 00 00 00 00
  can0  700   [5]  27 00 00 00 00
  can0  700   [8]  10 35 35 00 00 00 00 00
  can0  701   [3]  30 00 00
  can0  700   [8]  21 00 00 00 00 00 00 00
  can0  700   [8]  22 00 00 00 00 00 00 00
  can0  700   [8]  23 00 00 00 00 00 00 00
  can0  700   [8]  24 00 00 00 00 00 00 00
  can0  700   [8]  25 00 00 00 00 00 00 00
  can0  700   [8]  26 00 00 00 00 00 00 00
  can0  700   [6]  27 00 00 00 00 00
  can0  700   [8]  10 36 36 00 00 00 00 00
  can0  701   [3]  30 00 00
  can0  700   [8]  21 00 00 00 00 00 00 00
  can0  700   [8]  22 00 00 00 00 00 00 00
  can0  700   [8]  23 00 00 00 00 00 00 00
  can0  700   [8]  24 00 00 00 00 00 00 00
  can0  700   [8]  25 00 00 00 00 00 00 00
  can0  700   [8]  26 00 00 00 00 00 00 00
  can0  700   [7]  27 00 00 00 00 00 00
  can0  700   [8]  10 37 37 00 00 00 00 00
  can0  701   [3]  30 00 00
  can0  700   [8]  21 00 00 00 00 00 00 00
  can0  700   [8]  22 00 00 00 00 00 00 00
  can0  700   [8]  23 00 00 00 00 00 00 00
  can0  700   [8]  24 00 00 00 00 00 00 00
  can0  700   [8]  25 00 00 00 00 00 00 00
  can0  700   [8]  26 00 00 00 00 00 00 00
  can0  700   [8]  27 00 00 00 00 00 00 00
  can0  700   [8]  10 38 38 00 00 00 00 00
  can0  701   [3]  30 00 00
  can0  700   [8]  21 00 00 00 00 00 00 00
  can0  700   [8]  22 00 00 00 00 00 00 00
  can0  700   [8]  23 00 00 00 00 00 00 00
  can0  700   [8]  24 00 00 00 00 00 00 00
  can0  700   [8]  25 00 00 00 00 00 00 00
  can0  700   [8]  26 00 00 00 00 00 00 00
  can0  700   [8]  27 00 00 00 00 00 00 00
  can0  700   [2]  28 00
  can0  700   [8]  10 39 39 00 00 00 00 00
  can0  701   [3]  30 00 00
  can0  700   [8]  21 00 00 00 00 00 00 00
  can0  700   [8]  22 00 00 00 00 00 00 00
  can0  700   [8]  23 00 00 00 00 00 00 00
  can0  700   [8]  24 00 00 00 00 00 00 00
  can0  700   [8]  25 00 00 00 00 00 00 00
  can0  700   [8]  26 00 00 00 00 00 00 00
  can0  700   [8]  27 00 00 00 00 00 00 00
  can0  700   [3]  28 00 00
  can0  700   [8]  10 3A 3A 00 00 00 00 00
  can0  701   [3]  30 00 00
  can0  700   [8]  21 00 00 00 00 00 00 00
  can0  700   [8]  22 00 00 00 00 00 00 00
  can0  700   [8]  23 00 00 00 00 00 00 00
  can0  700   [8]  24 00 00 00 00 00 00 00
  can0  700   [8]  25 00 00 00 00 00 00 00
  can0  700   [8]  26 00 00 00 00 00 00 00
  can0  700   [8]  27 00 00 00 00 00 00 00
  can0  700   [4]  28 00 00 00
  can0  700   [8]  10 3B 3B 00 00 00 00 00
  can0  701   [3]  30 00 00
  can0  700   [8]  21 00 00 00 00 00 00 00
  can0  700   [8]  22 00 00 00 00 00 00 00
  can0  700   [8]  23 00 00 00 00 00 00 00
  can0  700   [8]  24 00 00 00 00 00 00 00
  can0  700   [8]  25 00 00 00 00 00 00 00
  can0  700   [8]  26 00 00 00 00 00 00 00
  can0  700   [8]  27 00 00 00 00 00 00 00
  can0  700   [5]  28 00 00 00 00
  can0  700   [8]  10 3C 3C 00 00 00 00 00
  can0  701   [3]  30 00 00
  can0  700   [8]  21 00 00 00 00 00 00 00
  can0  700   [8]  22 00 00 00 00 00 00 00
  can0  700   [8]  23 00 00 00 00 00 00 00
  can0  700   [8]  24 00 00 00 00 00 00 00
  can0  700   [8]  25 00 00 00 00 00 00 00
  can0  700   [8]  26 00 00 00 00 00 00 00
  can0  700   [8]  27 00 00 00 00 00 00 00
  can0  700   [6]  28 00 00 00 00 00
  can0  700   [8]  10 3D 3D 00 00 00 00 00
  can0  701   [3]  30 00 00
  can0  700   [8]  21 00 00 00 00 00 00 00
  can0  700   [8]  22 00 00 00 00 00 00 00
  can0  700   [8]  23 00 00 00 00 00 00 00
  can0  700   [8]  24 00 00 00 00 00 00 00
  can0  700   [8]  25 00 00 00 00 00 00 00
  can0  700   [8]  26 00 00 00 00 00 00 00
  can0  700   [8]  27 00 00 00 00 00 00 00
  can0  700   [7]  28 00 00 00 00 00 00
  can0  700   [8]  10 3E 3E 00 00 00 00 00
  can0  701   [3]  30 00 00
  can0  700   [8]  21 00 00 00 00 00 00 00
  can0  700   [8]  22 00 00 00 00 00 00 00
  can0  700   [8]  23 00 00 00 00 00 00 00
  can0  700   [8]  24 00 00 00 00 00 00 00
  can0  700   [8]  25 00 00 00 00 00 00 00
  can0  700   [8]  26 00 00 00 00 00 00 00
  can0  700   [8]  27 00 00 00 00 00 00 00
  can0  700   [8]  28 00 00 00 00 00 00 00
  can0  700   [8]  10 3F 3F 00 00 00 00 00
  can0  701   [3]  30 00 00
  can0  700   [8]  21 00 00 00 00 00 00 00
  can0  700   [8]  22 00 00 00 00 00 00 00
  can0  700   [8]  23 00 00 00 00 00 00 00
  can0  700   [8]  24 00 00 00 00 00 00 00
  can0  700   [8]  25 00 00 00 00 00 00 00
  can0  700   [8]  26 00 00 00 00 00 00 00
  can0  700   [8]  27 00 00 00 00 00 00 00
  can0  700   [8]  28 00 00 00 00 00 00 00
  can0  700   [2]  29 00
  can0  700   [8]  10 40 40 00 00 00 00 00
  can0  701   [3]  30 00 00
  can0  700   [8]  21 00 00 00 00 00 00 00
  can0  700   [8]  22 00 00 00 00 00 00 00
  can0  700   [8]  23 00 00 00 00 00 00 00
  can0  700   [8]  24 00 00 00 00 00 00 00
  can0  700   [8]  25 00 00 00 00 00 00 00
  can0  700   [8]  26 00 00 00 00 00 00 00
  can0  700   [8]  27 00 00 00 00 00 00 00
  can0  700   [8]  28 00 00 00 00 00 00 00
  can0  700   [3]  29 00 00
  can0  700   [8]  10 41 41 00 00 00 00 00
  can0  701   [3]  30 00 00
  can0  700   [8]  21 00 00 00 00 00 00 00
  can0  700   [8]  22 00 00 00 00 00 00 00
  can0  700   [8]  23 00 00 00 00 00 00 00
  can0  700   [8]  24 00 00 00 00 00 00 00
  can0  700   [8]  25 00 00 00 00 00 00 00
  can0  700   [8]  26 00 00 00 00 00 00 00
  can0  700   [8]  27 00 00 00 00 00 00 00
  can0  700   [8]  28 00 00 00 00 00 00 00
  can0  700   [4]  29 00 00 00
  can0  700   [8]  10 42 42 00 00 00 00 00
  can0  701   [3]  30 00 00
  can0  700   [8]  21 00 00 00 00 00 00 00
  can0  700   [8]  22 00 00 00 00 00 00 00
  can0  700   [8]  23 00 00 00 00 00 00 00
  can0  700   [8]  24 00 00 00 00 00 00 00
  can0  700   [8]  25 00 00 00 00 00 00 00
  can0  700   [8]  26 00 00 00 00 00 00 00
  can0  700   [8]  27 00 00 00 00 00 00 00
  can0  700   [8]  28 00 00 00 00 00 00 00
  can0  700   [5]  29 00 00 00 00
  can0  700   [8]  10 43 43 00 00 00 00 00
  can0  701   [3]  30 00 00
  can0  700   [8]  21 00 00 00 00 00 00 00
  can0  700   [8]  22 00 00 00 00 00 00 00
  can0  700   [8]  23 00 00 00 00 00 00 00
  can0  700   [8]  24 00 00 00 00 00 00 00
  can0  700   [8]  25 00 00 00 00 00 00 00
  can0  700   [8]  26 00 00 00 00 00 00 00
  can0  700   [8]  27 00 00 00 00 00 00 00
  can0  700   [8]  28 00 00 00 00 00 00 00
  can0  700   [6]  29 00 00 00 00 00
  can0  700   [8]  10 44 44 00 00 00 00 00
  can0  701   [3]  30 00 00
  can0  700   [8]  21 00 00 00 00 00 00 00
  can0  700   [8]  22 00 00 00 00 00 00 00
  can0  700   [8]  23 00 00 00 00 00 00 00
  can0  700   [8]  24 00 00 00 00 00 00 00
  can0  700   [8]  25 00 00 00 00 00 00 00
  can0  700   [8]  26 00 00 00 00 00 00 00
  can0  700   [8]  27 00 00 00 00 00 00 00
  can0  700   [8]  28 00 00 00 00 00 00 00
  can0  700   [7]  29 00 00 00 00 00 00
  can0  700   [8]  10 45 45 00 00 00 00 00
  can0  701   [3]  30 00 00
  can0  700   [8]  21 00 00 00 00 00 00 00
  can0  700   [8]  22 00 00 00 00 00 00 00
  can0  700   [8]  23 00 00 00 00 00 00 00
  can0  700   [8]  24 00 00 00 00 00 00 00
  can0  700   [8]  25 00 00 00 00 00 00 00
  can0  700   [8]  26 00 00 00 00 00 00 00
  can0  700   [8]  27 00 00 00 00 00 00 00
  can0  700   [8]  28 00 00 00 00 00 00 00
  can0  700   [8]  29 00 00 00 00 00 00 00
  can0  700   [8]  10 46 46 00 00 00 00 00
  can0  701   [3]  30 00 00
  can0  700   [8]  21 00 00 00 00 00 00 00
  can0  700   [8]  22 00 00 00 00 00 00 00
  can0  700   [8]  23 00 00 00 00 00 00 00
  can0  700   [8]  24 00 00 00 00 00 00 00
  can0  700   [8]  25 00 00 00 00 00 00 00
  can0  700   [8]  26 00 00 00 00 00 00 00
  can0  700   [8]  27 00 00 00 00 00 00 00
  can0  700   [8]  28 00 00 00 00 00 00 00
  can0  700   [8]  29 00 00 00 00 00 00 00
  can0  700   [2]  2A 00
  can0  700   [8]  10 47 47 00 00 00 00 00
  can0  701   [3]  30 00 00
  can0  700   [8]  21 00 00 00 00 00 00 00
  can0  700   [8]  22 00 00 00 00 00 00 00
  can0  700   [8]  23 00 00 00 00 00 00 00
  can0  700   [8]  24 00 00 00 00 00 00 00
  can0  700   [8]  25 00 00 00 00 00 00 00
  can0  700   [8]  26 00 00 00 00 00 00 00
  can0  700   [8]  27 00 00 00 00 00 00 00
  can0  700   [8]  28 00 00 00 00 00 00 00
  can0  700   [8]  29 00 00 00 00 00 00 00
  can0  700   [3]  2A 00 00
  can0  700   [8]  10 48 48 00 00 00 00 00
  can0  701   [3]  30 00 00
  can0  700   [8]  21 00 00 00 00 00 00 00
  can0  700   [8]  22 00 00 00 00 00 00 00
  can0  700   [8]  23 00 00 00 00 00 00 00
  can0  700   [8]  24 00 00 00 00 00 00 00
  can0  700   [8]  25 00 00 00 00 00 00 00
  can0  700   [8]  26 00 00 00 00 00 00 00
  can0  700   [8]  27 00 00 00 00 00 00 00
  can0  700   [8]  28 00 00 00 00 00 00 00
  can0  700   [8]  29 00 00 00 00 00 00 00
  can0  700   [4]  2A 00 00 00
  can0  700   [8]  10 49 49 00 00 00 00 00
  can0  701   [3]  30 00 00
  can0  700   [8]  21 00 00 00 00 00 00 00
  can0  700   [8]  22 00 00 00 00 00 00 00
  can0  700   [8]  23 00 00 00 00 00 00 00
  can0  700   [8]  24 00 00 00 00 00 00 00
  can0  700   [8]  25 00 00 00 00 00 00 00
  can0  700   [8]  26 00 00 00 00 00 00 00
  can0  700   [8]  27 00 00 00 00 00 00 00
  can0  700   [8]  28 00 00 00 00 00 00 00
  can0  700   [8]  29 00 00 00 00 00 00 00
  can0  700   [5]  2A 00 00 00 00
  can0  700   [8]  10 4A 4A 00 00 00 00 00
  can0  701   [3]  30 00 00
  can0  700   [8]  21 00 00 00 00 00 00 00
  can0  700   [8]  22 00 00 00 00 00 00 00
  can0  700   [8]  23 00 00 00 00 00 00 00
  can0  700   [8]  24 00 00 00 00 00 00 00
  can0  700   [8]  25 00 00 00 00 00 00 00
  can0  700   [8]  26 00 00 00 00 00 00 00
  can0  700   [8]  27 00 00 00 00 00 00 00
  can0  700   [8]  28 00 00 00 00 00 00 00
  can0  700   [8]  29 00 00 00 00 00 00 00
  can0  700   [6]  2A 00 00 00 00 00
  can0  700   [8]  10 4B 4B 00 00 00 00 00
  can0  701   [3]  30 00 00
  can0  700   [8]  21 00 00 00 00 00 00 00
  can0  700   [8]  22 00 00 00 00 00 00 00
  can0  700   [8]  23 00 00 00 00 00 00 00
  can0  700   [8]  24 00 00 00 00 00 00 00
  can0  700   [8]  25 00 00 00 00 00 00 00
  can0  700   [8]  26 00 00 00 00 00 00 00
  can0  700   [8]  27 00 00 00 00 00 00 00
  can0  700   [8]  28 00 00 00 00 00 00 00
  can0  700   [8]  29 00 00 00 00 00 00 00
  can0  700   [7]  2A 00 00 00 00 00 00
  can0  700   [8]  10 4C 4C 00 00 00 00 00
  can0  701   [3]  30 00 00
  can0  700   [8]  21 00 00 00 00 00 00 00
  can0  700   [8]  22 00 00 00 00 00 00 00
  can0  700   [8]  23 00 00 00 00 00 00 00
  can0  700   [8]  24 00 00 00 00 00 00 00
  can0  700   [8]  25 00 00 00 00 00 00 00
  can0  700   [8]  26 00 00 00 00 00 00 00
  can0  700   [8]  27 00 00 00 00 00 00 00
  can0  700   [8]  28 00 00 00 00 00 00 00
  can0  700   [8]  29 00 00 00 00 00 00 00
  can0  700   [8]  2A 00 00 00 00 00 00 00
  can0  700   [8]  10 4D 4D 00 00 00 00 00
  can0  701   [3]  30 00 00
  can0  700   [8]  21 00 00 00 00 00 00 00
  can0  700   [8]  22 00 00 00 00 00 00 00
  can0  700   [8]  23 00 00 00 00 00 00 00
  can0  700   [8]  24 00 00 00 00 00 00 00
  can0  700   [8]  25 00 00 00 00 00 00 00
  can0  700   [8]  26 00 00 00 00 00 00 00
  can0  700   [8]  27 00 00 00 00 00 00 00
  can0  700   [8]  28 00 00 00 00 00 00 00
  can0  700   [8]  29 00 00 00 00 00 00 00
  can0  700   [8]  2A 00 00 00 00 00 00 00
  can0  700   [2]  2B 00
  can0  700   [8]  10 4E 4E 00 00 00 00 00
  can0  701   [3]  30 00 00
  can0  700   [8]  21 00 00 00 00 00 00 00
  can0  700   [8]  22 00 00 00 00 00 00 00
  can0  700   [8]  23 00 00 00 00 00 00 00
  can0  700   [8]  24 00 00 00 00 00 00 00
  can0  700   [8]  25 00 00 00 00 00 00 00
  can0  700   [8]  26 00 00 00 00 00 00 00
  can0  700   [8]  27 00 00 00 00 00 00 00
  can0  700   [8]  28 00 00 00 00 00 00 00
  can0  700   [8]  29 00 00 00 00 00 00 00
  can0  700   [8]  2A 00 00 00 00 00 00 00
  can0  700   [3]  2B 00 00
  can0  700   [8]  10 4F 4F 00 00 00 00 00
  can0  701   [3]  30 00 00
  can0  700   [8]  21 00 00 00 00 00 00 00
  can0  700   [8]  22 00 00 00 00 00 00 00
  can0  700   [8]  23 00 00 00 00 00 00 00
  can0  700   [8]  24 00 00 00 00 00 00 00
  can0  700   [8]  25 00 00 00 00 00 00 00
  can0  700   [8]  26 00 00 00 00 00 00 00
  can0  700   [8]  27 00 00 00 00 00 00 00
  can0  700   [8]  28 00 00 00 00 00 00 00
  can0  700   [8]  29 00 00 00 00 00 00 00
  can0  700   [8]  2A 00 00 00 00 00 00 00
  can0  700   [4]  2B 00 00 00
  can0  700   [8]  10 50 50 00 00 00 00 00
  can0  701   [3]  30 00 00
  can0  700   [8]  21 00 00 00 00 00 00 00
  can0  700   [8]  22 00 00 00 00 00 00 00
  can0  700   [8]  23 00 00 00 00 00 00 00
  can0  700   [8]  24 00 00 00 00 00 00 00
  can0  700   [8]  25 00 00 00 00 00 00 00
  can0  700   [8]  26 00 00 00 00 00 00 00
  can0  700   [8]  27 00 00 00 00 00 00 00
  can0  700   [8]  28 00 00 00 00 00 00 00
  can0  700   [8]  29 00 00 00 00 00 00 00
  can0  700   [8]  2A 00 00 00 00 00 00 00
  can0  700   [5]  2B 00 00 00 00
  can0  700   [8]  10 51 51 00 00 00 00 00
  can0  701   [3]  30 00 00
  can0  700   [8]  21 00 00 00 00 00 00 00
  can0  700   [8]  22 00 00 00 00 00 00 00
  can0  700   [8]  23 00 00 00 00 00 00 00
  can0  700   [8]  24 00 00 00 00 00 00 00
  can0  700   [8]  25 00 00 00 00 00 00 00
  can0  700   [8]  26 00 00 00 00 00 00 00
  can0  700   [8]  27 00 00 00 00 00 00 00
  can0  700   [8]  28 00 00 00 00 00 00 00
  can0  700   [8]  29 00 00 00 00 00 00 00
  can0  700   [8]  2A 00 00 00 00 00 00 00
  can0  700   [6]  2B 00 00 00 00 00
  can0  700   [8]  10 52 52 00 00 00 00 00
  can0  701   [3]  30 00 00
  can0  700   [8]  21 00 00 00 00 00 00 00
  can0  700   [8]  22 00 00 00 00 00 00 00
  can0  700   [8]  23 00 00 00 00 00 00 00
  can0  700   [8]  24 00 00 00 00 00 00 00
  can0  700   [8]  25 00 00 00 00 00 00 00
  can0  700   [8]  26 00 00 00 00 00 00 00
  can0  700   [8]  27 00 00 00 00 00 00 00
  can0  700   [8]  28 00 00 00 00 00 00 00
  can0  700   [8]  29 00 00 00 00 00 00 00
  can0  700   [8]  2A 00 00 00 00 00 00 00
  can0  700   [7]  2B 00 00 00 00 00 00
  can0  700   [8]  10 53 53 00 00 00 00 00
  can0  701   [3]  30 00 00
  can0  700   [8]  21 00 00 00 00 00 00 00
  can0  700   [8]  22 00 00 00 00 00 00 00
  can0  700   [8]  23 00 00 00 00 00 00 00
  can0  700   [8]  24 00 00 00 00 00 00 00
  can0  700   [8]  25 00 00 00 00 00 00 00
  can0  700   [8]  26 00 00 00 00 00 00 00
  can0  700   [8]  27 00 00 00 00 00 00 00
  can0  700   [8]  28 00 00 00 00 00 00 00
  can0  700   [8]  29 00 00 00 00 00 00 00
  can0  700   [8]  2A 00 00 00 00 00 00 00
  can0  700   [8]  2B 00 00 00 00 00 00 00
  can0  700   [8]  10 54 54 00 00 00 00 00
  can0  701   [3]  30 00 00
  can0  700   [8]  21 00 00 00 00 00 00 00
  can0  700   [8]  22 00 00 00 00 00 00 00
  can0  700   [8]  23 00 00 00 00 00 00 00
  can0  700   [8]  24 00 00 00 00 00 00 00
  can0  700   [8]  25 00 00 00 00 00 00 00
  can0  700   [8]  26 00 00 00 00 00 00 00
  can0  700   [8]  27 00 00 00 00 00 00 00
  can0  700   [8]  28 00 00 00 00 00 00 00
  can0  700   [8]  29 00 00 00 00 00 00 00
  can0  700   [8]  2A 00 00 00 00 00 00 00
  can0  700   [8]  2B 00 00 00 00 00 00 00
  can0  700   [2]  2C 00
  can0  700   [8]  10 55 55 00 00 00 00 00
  can0  701   [3]  30 00 00
  can0  700   [8]  21 00 00 00 00 00 00 00
  can0  700   [8]  22 00 00 00 00 00 00 00
  can0  700   [8]  23 00 00 00 00 00 00 00
  can0  700   [8]  24 00 00 00 00 00 00 00
  can0  700   [8]  25 00 00 00 00 00 00 00
  can0  700   [8]  26 00 00 00 00 00 00 00
  can0  700   [8]  27 00 00 00 00 00 00 00
  can0  700   [8]  28 00 00 00 00 00 00 00
  can0  700   [8]  29 00 00 00 00 00 00 00
  can0  700   [8]  2A 00 00 00 00 00 00 00
  can0  700   [8]  2B 00 00 00 00 00 00 00
  can0  700   [3]  2C 00 00
  can0  700   [8]  10 56 56 00 00 00 00 00
  can0  701   [3]  30 00 00
  can0  700   [8]  21 00 00 00 00 00 00 00
  can0  700   [8]  22 00 00 00 00 00 00 00
  can0  700   [8]  23 00 00 00 00 00 00 00
  can0  700   [8]  24 00 00 00 00 00 00 00
  can0  700   [8]  25 00 00 00 00 00 00 00
  can0  700   [8]  26 00 00 00 00 00 00 00
  can0  700   [8]  27 00 00 00 00 00 00 00
  can0  700   [8]  28 00 00 00 00 00 00 00
  can0  700   [8]  29 00 00 00 00 00 00 00
  can0  700   [8]  2A 00 00 00 00 00 00 00
  can0  700   [8]  2B 00 00 00 00 00 00 00
  can0  700   [4]  2C 00 00 00
  can0  700   [8]  10 57 57 00 00 00 00 00
  can0  701   [3]  30 00 00
  can0  700   [8]  21 00 00 00 00 00 00 00
  can0  700   [8]  22 00 00 00 00 00 00 00
  can0  700   [8]  23 00 00 00 00 00 00 00
  can0  700   [8]  24 00 00 00 00 00 00 00
  can0  700   [8]  25 00 00 00 00 00 00 00
  can0  700   [8]  26 00 00 00 00 00 00 00
  can0  700   [8]  27 00 00 00 00 00 00 00
  can0  700   [8]  28 00 00 00 00 00 00 00
  can0  700   [8]  29 00 00 00 00 00 00 00
  can0  700   [8]  2A 00 00 00 00 00 00 00
  can0  700   [8]  2B 00 00 00 00 00 00 00
  can0  700   [5]  2C 00 00 00 00
  can0  700   [8]  10 58 58 00 00 00 00 00
  can0  701   [3]  30 00 00
  can0  700   [8]  21 00 00 00 00 00 00 00
  can0  700   [8]  22 00 00 00 00 00 00 00
  can0  700   [8]  23 00 00 00 00 00 00 00
  can0  700   [8]  24 00 00 00 00 00 00 00
  can0  700   [8]  25 00 00 00 00 00 00 00
  can0  700   [8]  26 00 00 00 00 00 00 00
  can0  700   [8]  27 00 00 00 00 00 00 00
  can0  700   [8]  28 00 00 00 00 00 00 00
  can0  700   [8]  29 00 00 00 00 00 00 00
  can0  700   [8]  2A 00 00 00 00 00 00 00
  can0  700   [8]  2B 00 00 00 00 00 00 00
  can0  700   [6]  2C 00 00 00 00 00
  can0  700   [8]  10 59 59 00 00 00 00 00
  can0  701   [3]  30 00 00
  can0  700   [8]  21 00 00 00 00 00 00 00
  can0  700   [8]  22 00 00 00 00 00 00 00
  can0  700   [8]  23 00 00 00 00 00 00 00
  can0  700   [8]  24 00 00 00 00 00 00 00
  can0  700   [8]  25 00 00 00 00 00 00 00
  can0  700   [8]  26 00 00 00 00 00 00 00
  can0  700   [8]  27 00 00 00 00 00 00 00
  can0  700   [8]  28 00 00 00 00 00 00 00
  can0  700   [8]  29 00 00 00 00 00 00 00
  can0  700   [8]  2A 00 00 00 00 00 00 00
  can0  700   [8]  2B 00 00 00 00 00 00 00
  can0  700   [7]  2C 00 00 00 00 00 00
  can0  700   [8]  10 5A 5A 00 00 00 00 00
  can0  701   [3]  30 00 00
  can0  700   [8]  21 00 00 00 00 00 00 00
  can0  700   [8]  22 00 00 00 00 00 00 00
  can0  700   [8]  23 00 00 00 00 00 00 00
  can0  700   [8]  24 00 00 00 00 00 00 00
  can0  700   [8]  25 00 00 00 00 00 00 00
  can0  700   [8]  26 00 00 00 00 00 00 00
  can0  700   [8]  27 00 00 00 00 00 00 00
  can0  700   [8]  28 00 00 00 00 00 00 00
  can0  700   [8]  29 00 00 00 00 00 00 00
  can0  700   [8]  2A 00 00 00 00 00 00 00
  can0  700   [8]  2B 00 00 00 00 00 00 00
  can0  700   [8]  2C 00 00 00 00 00 00 00
  can0  700   [8]  10 5B 5B 00 00 00 00 00
  can0  701   [3]  30 00 00
  can0  700   [8]  21 00 00 00 00 00 00 00
  can0  700   [8]  22 00 00 00 00 00 00 00
  can0  700   [8]  23 00 00 00 00 00 00 00
  can0  700   [8]  24 00 00 00 00 00 00 00
  can0  700   [8]  25 00 00 00 00 00 00 00
  can0  700   [8]  26 00 00 00 00 00 00 00
  can0  700   [8]  27 00 00 00 00 00 00 00
  can0  700   [8]  28 00 00 00 00 00 00 00
  can0  700   [8]  29 00 00 00 00 00 00 00
  can0  700   [8]  2A 00 00 00 00 00 00 00
  can0  700   [8]  2B 00 00 00 00 00 00 00
  can0  700   [8]  2C 00 00 00 00 00 00 00
  can0  700   [2]  2D 00
  can0  700   [8]  10 5C 5C 00 00 00 00 00
  can0  701   [3]  30 00 00
  can0  700   [8]  21 00 00 00 00 00 00 00
  can0  700   [8]  22 00 00 00 00 00 00 00
  can0  700   [8]  23 00 00 00 00 00 00 00
  can0  700   [8]  24 00 00 00 00 00 00 00
  can0  700   [8]  25 00 00 00 00 00 00 00
  can0  700   [8]  26 00 00 00 00 00 00 00
  can0  700   [8]  27 00 00 00 00 00 00 00
  can0  700   [8]  28 00 00 00 00 00 00 00
  can0  700   [8]  29 00 00 00 00 00 00 00
  can0  700   [8]  2A 00 00 00 00 00 00 00
  can0  700   [8]  2B 00 00 00 00 00 00 00
  can0  700   [8]  2C 00 00 00 00 00 00 00
  can0  700   [3]  2D 00 00
  can0  700   [8]  10 5D 5D 00 00 00 00 00
  can0  701   [3]  30 00 00
  can0  700   [8]  21 00 00 00 00 00 00 00
  can0  700   [8]  22 00 00 00 00 00 00 00
  can0  700   [8]  23 00 00 00 00 00 00 00
  can0  700   [8]  24 00 00 00 00 00 00 00
  can0  700   [8]  25 00 00 00 00 00 00 00
  can0  700   [8]  26 00 00 00 00 00 00 00
  can0  700   [8]  27 00 00 00 00 00 00 00
  can0  700   [8]  28 00 00 00 00 00 00 00
  can0  700   [8]  29 00 00 00 00 00 00 00
  can0  700   [8]  2A 00 00 00 00 00 00 00
  can0  700   [8]  2B 00 00 00 00 00 00 00
  can0  700   [8]  2C 00 00 00 00 00 00 00
  can0  700   [4]  2D 00 00 00
  can0  700   [8]  10 5E 5E 00 00 00 00 00
  can0  701   [3]  30 00 00
  can0  700   [8]  21 00 00 00 00 00 00 00
  can0  700   [8]  22 00 00 00 00 00 00 00
  can0  700   [8]  23 00 00 00 00 00 00 00
  can0  700   [8]  24 00 00 00 00 00 00 00
  can0  700   [8]  25 00 00 00 00 00 00 00
  can0  700   [8]  26 00 00 00 00 00 00 00
  can0  700   [8]  27 00 00 00 00 00 00 00
  can0  700   [8]  28 00 00 00 00 00 00 00
  can0  700   [8]  29 00 00 00 00 00 00 00
  can0  700   [8]  2A 00 00 00 00 00 00 00
  can0  700   [8]  2B 00 00 00 00 00 00 00
  can0  700   [8]  2C 00 00 00 00 00 00 00
  can0  700   [5]  2D 00 00 00 00
  can0  700   [8]  10 5F 5F 00 00 00 00 00
  can0  701   [3]  30 00 00
  can0  700   [8]  21 00 00 00 00 00 00 00
  can0  700   [8]  22 00 00 00 00 00 00 00
  can0  700   [8]  23 00 00 00 00 00 00 00
  can0  700   [8]  24 00 00 00 00 00 00 00
  can0  700   [8]  25 00 00 00 00 00 00 00
  can0  700   [8]  26 00 00 00 00 00 00 00
  can0  700   [8]  27 00 00 00 00 00 00 00
  can0  700   [8]  28 00 00 00 00 00 00 00
  can0  700   [8]  29 00 00 00 00 00 00 00
  can0  700   [8]  2A 00 00 00 00 00 00 00
  can0  700   [8]  2B 00 00 00 00 00 00 00
  can0  700   [8]  2C 00 00 00 00 00 00 00
  can0  700   [6]  2D 00 00 00 00 00
  can0  700   [8]  10 60 60 00 00 00 00 00
  can0  701   [3]  30 00 00
  can0  700   [8]  21 00 00 00 00 00 00 00
  can0  700   [8]  22 00 00 00 00 00 00 00
  can0  700   [8]  23 00 00 00 00 00 00 00
  can0  700   [8]  24 00 00 00 00 00 00 00
  can0  700   [8]  25 00 00 00 00 00 00 00
  can0  700   [8]  26 00 00 00 00 00 00 00
  can0  700   [8]  27 00 00 00 00 00 00 00
  can0  700   [8]  28 00 00 00 00 00 00 00
  can0  700   [8]  29 00 00 00 00 00 00 00
  can0  700   [8]  2A 00 00 00 00 00 00 00
  can0  700   [8]  2B 00 00 00 00 00 00 00
  can0  700   [8]  2C 00 00 00 00 00 00 00
  can0  700   [7]  2D 00 00 00 00 00 00
  can0  700   [8]  10 61 61 00 00 00 00 00
  can0  701   [3]  30 00 00
  can0  700   [8]  21 00 00 00 00 00 00 00
  can0  700   [8]  22 00 00 00 00 00 00 00
  can0  700   [8]  23 00 00 00 00 00 00 00
  can0  700   [8]  24 00 00 00 00 00 00 00
  can0  700   [8]  25 00 00 00 00 00 00 00
  can0  700   [8]  26 00 00 00 00 00 00 00
  can0  700   [8]  27 00 00 00 00 00 00 00
  can0  700   [8]  28 00 00 00 00 00 00 00
  can0  700   [8]  29 00 00 00 00 00 00 00
  can0  700   [8]  2A 00 00 00 00 00 00 00
  can0  700   [8]  2B 00 00 00 00 00 00 00
  can0  700   [8]  2C 00 00 00 00 00 00 00
  can0  700   [8]  2D 00 00 00 00 00 00 00
  can0  700   [8]  10 62 62 00 00 00 00 00
  can0  701   [3]  30 00 00
  can0  700   [8]  21 00 00 00 00 00 00 00
  can0  700   [8]  22 00 00 00 00 00 00 00
  can0  700   [8]  23 00 00 00 00 00 00 00
  can0  700   [8]  24 00 00 00 00 00 00 00
  can0  700   [8]  25 00 00 00 00 00 00 00
  can0  700   [8]  26 00 00 00 00 00 00 00
  can0  700   [8]  27 00 00 00 00 00 00 00
  can0  700   [8]  28 00 00 00 00 00 00 00
  can0  700   [8]  29 00 00 00 00 00 00 00
  can0  700   [8]  2A 00 00 00 00 00 00 00
  can0  700   [8]  2B 00 00 00 00 00 00 00
  can0  700   [8]  2C 00 00 00 00 00 00 00
  can0  700   [8]  2D 00 00 00 00 00 00 00
  can0  700   [2]  2E 00
  can0  700   [8]  10 63 63 00 00 00 00 00
  can0  701   [3]  30 00 00
  can0  700   [8]  21 00 00 00 00 00 00 00
  can0  700   [8]  22 00 00 00 00 00 00 00
  can0  700   [8]  23 00 00 00 00 00 00 00
  can0  700   [8]  24 00 00 00 00 00 00 00
  can0  700   [8]  25 00 00 00 00 00 00 00
  can0  700   [8]  26 00 00 00 00 00 00 00
  can0  700   [8]  27 00 00 00 00 00 00 00
  can0  700   [8]  28 00 00 00 00 00 00 00
  can0  700   [8]  29 00 00 00 00 00 00 00
  can0  700   [8]  2A 00 00 00 00 00 00 00
  can0  700   [8]  2B 00 00 00 00 00 00 00
  can0  700   [8]  2C 00 00 00 00 00 00 00
  can0  700   [8]  2D 00 00 00 00 00 00 00
  can0  700   [3]  2E 00 00
  can0  700   [8]  10 64 64 00 00 00 00 00
  can0  701   [3]  30 00 00
  can0  700   [8]  21 00 00 00 00 00 00 00
  can0  700   [8]  22 00 00 00 00 00 00 00
  can0  700   [8]  23 00 00 00 00 00 00 00
  can0  700   [8]  24 00 00 00 00 00 00 00
  can0  700   [8]  25 00 00 00 00 00 00 00
  can0  700   [8]  26 00 00 00 00 00 00 00
  can0  700   [8]  27 00 00 00 00 00 00 00
  can0  700   [8]  28 00 00 00 00 00 00 00
  can0  700   [8]  29 00 00 00 00 00 00 00
  can0  700   [8]  2A 00 00 00 00 00 00 00
  can0  700   [8]  2B 00 00 00 00 00 00 00
  can0  700   [8]  2C 00 00 00 00 00 00 00
  can0  700   [8]  2D 00 00 00 00 00 00 00
  can0  700   [4]  2E 00 00 00
  can0  700   [8]  10 65 65 00 00 00 00 00
  can0  701   [3]  30 00 00
  can0  700   [8]  21 00 00 00 00 00 00 00
  can0  700   [8]  22 00 00 00 00 00 00 00
  can0  700   [8]  23 00 00 00 00 00 00 00
  can0  700   [8]  24 00 00 00 00 00 00 00
  can0  700   [8]  25 00 00 00 00 00 00 00
  can0  700   [8]  26 00 00 00 00 00 00 00
  can0  700   [8]  27 00 00 00 00 00 00 00
  can0  700   [8]  28 00 00 00 00 00 00 00
  can0  700   [8]  29 00 00 00 00 00 00 00
  can0  700   [8]  2A 00 00 00 00 00 00 00
  can0  700   [8]  2B 00 00 00 00 00 00 00
  can0  700   [8]  2C 00 00 00 00 00 00 00
  can0  700   [8]  2D 00 00 00 00 00 00 00
  can0  700   [5]  2E 00 00 00 00
  can0  700   [8]  10 66 66 00 00 00 00 00
  can0  701   [3]  30 00 00
  can0  700   [8]  21 00 00 00 00 00 00 00
  can0  700   [8]  22 00 00 00 00 00 00 00
  can0  700   [8]  23 00 00 00 00 00 00 00
  can0  700   [8]  24 00 00 00 00 00 00 00
  can0  700   [8]  25 00 00 00 00 00 00 00
  can0  700   [8]  26 00 00 00 00 00 00 00
  can0  700   [8]  27 00 00 00 00 00 00 00
  can0  700   [8]  28 00 00 00 00 00 00 00
  can0  700   [8]  29 00 00 00 00 00 00 00
  can0  700   [8]  2A 00 00 00 00 00 00 00
  can0  700   [8]  2B 00 00 00 00 00 00 00
  can0  700   [8]  2C 00 00 00 00 00 00 00
  can0  700   [8]  2D 00 00 00 00 00 00 00
  can0  700   [6]  2E 00 00 00 00 00
  can0  700   [8]  10 67 67 00 00 00 00 00
  can0  701   [3]  30 00 00
  can0  700   [8]  21 00 00 00 00 00 00 00
  can0  700   [8]  22 00 00 00 00 00 00 00
  can0  700   [8]  23 00 00 00 00 00 00 00
  can0  700   [8]  24 00 00 00 00 00 00 00
  can0  700   [8]  25 00 00 00 00 00 00 00
  can0  700   [8]  26 00 00 00 00 00 00 00
  can0  700   [8]  27 00 00 00 00 00 00 00
  can0  700   [8]  28 00 00 00 00 00 00 00
  can0  700   [8]  29 00 00 00 00 00 00 00
  can0  700   [8]  2A 00 00 00 00 00 00 00
  can0  700   [8]  2B 00 00 00 00 00 00 00
  can0  700   [8]  2C 00 00 00 00 00 00 00
  can0  700   [8]  2D 00 00 00 00 00 00 00
  can0  700   [7]  2E 00 00 00 00 00 00
  can0  700   [8]  10 68 68 00 00 00 00 00
  can0  701   [3]  30 00 00
  can0  700   [8]  21 00 00 00 00 00 00 00
  can0  700   [8]  22 00 00 00 00 00 00 00
  can0  700   [8]  23 00 00 00 00 00 00 00
  can0  700   [8]  24 00 00 00 00 00 00 00
  can0  700   [8]  25 00 00 00 00 00 00 00
  can0  700   [8]  26 00 00 00 00 00 00 00
  can0  700   [8]  27 00 00 00 00 00 00 00
  can0  700   [8]  28 00 00 00 00 00 00 00
  can0  700   [8]  29 00 00 00 00 00 00 00
  can0  700   [8]  2A 00 00 00 00 00 00 00
  can0  700   [8]  2B 00 00 00 00 00 00 00
  can0  700   [8]  2C 00 00 00 00 00 00 00
  can0  700   [8]  2D 00 00 00 00 00 00 00
  can0  700   [8]  2E 00 00 00 00 00 00 00
  can0  700   [8]  10 69 69 00 00 00 00 00
  can0  701   [3]  30 00 00
  can0  700   [8]  21 00 00 00 00 00 00 00
  can0  700   [8]  22 00 00 00 00 00 00 00
  can0  700   [8]  23 00 00 00 00 00 00 00
  can0  700   [8]  24 00 00 00 00 00 00 00
  can0  700   [8]  25 00 00 00 00 00 00 00
  can0  700   [8]  26 00 00 00 00 00 00 00
  can0  700   [8]  27 00 00 00 00 00 00 00
  can0  700   [8]  28 00 00 00 00 00 00 00
  can0  700   [8]  29 00 00 00 00 00 00 00
  can0  700   [8]  2A 00 00 00 00 00 00 00
  can0  700   [8]  2B 00 00 00 00 00 00 00
  can0  700   [8]  2C 00 00 00 00 00 00 00
  can0  700   [8]  2D 00 00 00 00 00 00 00
  can0  700   [8]  2E 00 00 00 00 00 00 00
  can0  700   [2]  2F 00
  can0  700   [8]  10 6A 6A 00 00 00 00 00
  can0  701   [3]  30 00 00
  can0  700   [8]  21 00 00 00 00 00 00 00
  can0  700   [8]  22 00 00 00 00 00 00 00
  can0  700   [8]  23 00 00 00 00 00 00 00
  can0  700   [8]  24 00 00 00 00 00 00 00
  can0  700   [8]  25 00 00 00 00 00 00 00
  can0  700   [8]  26 00 00 00 00 00 00 00
  can0  700   [8]  27 00 00 00 00 00 00 00
  can0  700   [8]  28 00 00 00 00 00 00 00
  can0  700   [8]  29 00 00 00 00 00 00 00
  can0  700   [8]  2A 00 00 00 00 00 00 00
  can0  700   [8]  2B 00 00 00 00 00 00 00
  can0  700   [8]  2C 00 00 00 00 00 00 00
  can0  700   [8]  2D 00 00 00 00 00 00 00
  can0  700   [8]  2E 00 00 00 00 00 00 00
  can0  700   [3]  2F 00 00
  can0  700   [8]  10 6B 6B 00 00 00 00 00
  can0  701   [3]  30 00 00
  can0  700   [8]  21 00 00 00 00 00 00 00
  can0  700   [8]  22 00 00 00 00 00 00 00
  can0  700   [8]  23 00 00 00 00 00 00 00
  can0  700   [8]  24 00 00 00 00 00 00 00
  can0  700   [8]  25 00 00 00 00 00 00 00
  can0  700   [8]  26 00 00 00 00 00 00 00
  can0  700   [8]  27 00 00 00 00 00 00 00
  can0  700   [8]  28 00 00 00 00 00 00 00
  can0  700   [8]  29 00 00 00 00 00 00 00
  can0  700   [8]  2A 00 00 00 00 00 00 00
  can0  700   [8]  2B 00 00 00 00 00 00 00
  can0  700   [8]  2C 00 00 00 00 00 00 00
  can0  700   [8]  2D 00 00 00 00 00 00 00
  can0  700   [8]  2E 00 00 00 00 00 00 00
  can0  700   [4]  2F 00 00 00
  can0  700   [8]  10 6C 6C 00 00 00 00 00
  can0  701   [3]  30 00 00
  can0  700   [8]  21 00 00 00 00 00 00 00
  can0  700   [8]  22 00 00 00 00 00 00 00
  can0  700   [8]  23 00 00 00 00 00 00 00
  can0  700   [8]  24 00 00 00 00 00 00 00
  can0  700   [8]  25 00 00 00 00 00 00 00
  can0  700   [8]  26 00 00 00 00 00 00 00
  can0  700   [8]  27 00 00 00 00 00 00 00
  can0  700   [8]  28 00 00 00 00 00 00 00
  can0  700   [8]  29 00 00 00 00 00 00 00
  can0  700   [8]  2A 00 00 00 00 00 00 00
  can0  700   [8]  2B 00 00 00 00 00 00 00
  can0  700   [8]  2C 00 00 00 00 00 00 00
  can0  700   [8]  2D 00 00 00 00 00 00 00
  can0  700   [8]  2E 00 00 00 00 00 00 00
  can0  700   [5]  2F 00 00 00 00
  can0  700   [8]  10 6D 6D 00 00 00 00 00
  can0  701   [3]  30 00 00
  can0  700   [8]  21 00 00 00 00 00 00 00
  can0  700   [8]  22 00 00 00 00 00 00 00
  can0  700   [8]  23 00 00 00 00 00 00 00
  can0  700   [8]  24 00 00 00 00 00 00 00
  can0  700   [8]  25 00 00 00 00 00 00 00
  can0  700   [8]  26 00 00 00 00 00 00 00
  can0  700   [8]  27 00 00 00 00 00 00 00
  can0  700   [8]  28 00 00 00 00 00 00 00
  can0  700   [8]  29 00 00 00 00 00 00 00
  can0  700   [8]  2A 00 00 00 00 00 00 00
  can0  700   [8]  2B 00 00 00 00 00 00 00
  can0  700   [8]  2C 00 00 00 00 00 00 00
  can0  700   [8]  2D 00 00 00 00 00 00 00
  can0  700   [8]  2E 00 00 00 00 00 00 00
  can0  700   [6]  2F 00 00 00 00 00
  can0  700   [8]  10 6E 6E 00 00 00 00 00
  can0  701   [3]  30 00 00
  can0  700   [8]  21 00 00 00 00 00 00 00
  can0  700   [8]  22 00 00 00 00 00 00 00
  can0  700   [8]  23 00 00 00 00 00 00 00
  can0  700   [8]  24 00 00 00 00 00 00 00
  can0  700   [8]  25 00 00 00 00 00 00 00
  can0  700   [8]  26 00 00 00 00 00 00 00
  can0  700   [8]  27 00 00 00 00 00 00 00
  can0  700   [8]  28 00 00 00 00 00 00 00
  can0  700   [8]  29 00 00 00 00 00 00 00
  can0  700   [8]  2A 00 00 00 00 00 00 00
  can0  700   [8]  2B 00 00 00 00 00 00 00
  can0  700   [8]  2C 00 00 00 00 00 00 00
  can0  700   [8]  2D 00 00 00 00 00 00 00
  can0  700   [8]  2E 00 00 00 00 00 00 00
  can0  700   [7]  2F 00 00 00 00 00 00
  can0  700   [8]  10 6F 6F 00 00 00 00 00
  can0  701   [3]  30 00 00
  can0  700   [8]  21 00 00 00 00 00 00 00
  can0  700   [8]  22 00 00 00 00 00 00 00
  can0  700   [8]  23 00 00 00 00 00 00 00
  can0  700   [8]  24 00 00 00 00 00 00 00
  can0  700   [8]  25 00 00 00 00 00 00 00
  can0  700   [8]  26 00 00 00 00 00 00 00
  can0  700   [8]  27 00 00 00 00 00 00 00
  can0  700   [8]  28 00 00 00 00 00 00 00
  can0  700   [8]  29 00 00 00 00 00 00 00
  can0  700   [8]  2A 00 00 00 00 00 00 00
  can0  700   [8]  2B 00 00 00 00 00 00 00
  can0  700   [8]  2C 00 00 00 00 00 00 00
  can0  700   [8]  2D 00 00 00 00 00 00 00
  can0  700   [8]  2E 00 00 00 00 00 00 00
  can0  700   [8]  2F 00 00 00 00 00 00 00
  can0  700   [8]  10 70 70 00 00 00 00 00
  can0  701   [3]  30 00 00
  can0  700   [8]  21 00 00 00 00 00 00 00
  can0  700   [8]  22 00 00 00 00 00 00 00
  can0  700   [8]  23 00 00 00 00 00 00 00
  can0  700   [8]  24 00 00 00 00 00 00 00
  can0  700   [8]  25 00 00 00 00 00 00 00
  can0  700   [8]  26 00 00 00 00 00 00 00
  can0  700   [8]  27 00 00 00 00 00 00 00
  can0  700   [8]  28 00 00 00 00 00 00 00
  can0  700   [8]  29 00 00 00 00 00 00 00
  can0  700   [8]  2A 00 00 00 00 00 00 00
  can0  700   [8]  2B 00 00 00 00 00 00 00
  can0  700   [8]  2C 00 00 00 00 00 00 00
  can0  700   [8]  2D 00 00 00 00 00 00 00
  can0  700   [8]  2E 00 00 00 00 00 00 00
  can0  700   [8]  2F 00 00 00 00 00 00 00
  can0  700   [2]  20 00
  can0  700   [8]  10 71 71 00 00 00 00 00
  can0  701   [3]  30 00 00
  can0  700   [8]  21 00 00 00 00 00 00 00
  can0  700   [8]  22 00 00 00 00 00 00 00
  can0  700   [8]  23 00 00 00 00 00 00 00
  can0  700   [8]  24 00 00 00 00 00 00 00
  can0  700   [8]  25 00 00 00 00 00 00 00
  can0  700   [8]  26 00 00 00 00 00 00 00
  can0  700   [8]  27 00 00 00 00 00 00 00
  can0  700   [8]  28 00 00 00 00 00 00 00
  can0  700   [8]  29 00 00 00 00 00 00 00
  can0  700   [8]  2A 00 00 00 00 00 00 00
  can0  700   [8]  2B 00 00 00 00 00 00 00
  can0  700   [8]  2C 00 00 00 00 00 00 00
  can0  700   [8]  2D 00 00 00 00 00 00 00
  can0  700   [8]  2E 00 00 00 00 00 00 00
  can0  700   [8]  2F 00 00 00 00 00 00 00
  can0  700   [3]  20 00 00
  can0  700   [8]  10 72 72 00 00 00 00 00
  can0  701   [3]  30 00 00
  can0  700   [8]  21 00 00 00 00 00 00 00
  can0  700   [8]  22 00 00 00 00 00 00 00
  can0  700   [8]  23 00 00 00 00 00 00 00
  can0  700   [8]  24 00 00 00 00 00 00 00
  can0  700   [8]  25 00 00 00 00 00 00 00
  can0  700   [8]  26 00 00 00 00 00 00 00
  can0  700   [8]  27 00 00 00 00 00 00 00
  can0  700   [8]  28 00 00 00 00 00 00 00
  can0  700   [8]  29 00 00 00 00 00 00 00
  can0  700   [8]  2A 00 00 00 00 00 00 00
  can0  700   [8]  2B 00 00 00 00 00 00 00
  can0  700   [8]  2C 00 00 00 00 00 00 00
  can0  700   [8]  2D 00 00 00 00 00 00 00
  can0  700   [8]  2E 00 00 00 00 00 00 00
  can0  700   [8]  2F 00 00 00 00 00 00 00
  can0  700   [4]  20 00 00 00
  can0  700   [8]  10 73 73 00 00 00 00 00
  can0  701   [3]  30 00 00
  can0  700   [8]  21 00 00 00 00 00 00 00
  can0  700   [8]  22 00 00 00 00 00 00 00
  can0  700   [8]  23 00 00 00 00 00 00 00
  can0  700   [8]  24 00 00 00 00 00 00 00
  can0  700   [8]  25 00 00 00 00 00 00 00
  can0  700   [8]  26 00 00 00 00 00 00 00
  can0  700   [8]  27 00 00 00 00 00 00 00
  can0  700   [8]  28 00 00 00 00 00 00 00
  can0  700   [8]  29 00 00 00 00 00 00 00
  can0  700   [8]  2A 00 00 00 00 00 00 00
  can0  700   [8]  2B 00 00 00 00 00 00 00
  can0  700   [8]  2C 00 00 00 00 00 00 00
  can0  700   [8]  2D 00 00 00 00 00 00 00
  can0  700   [8]  2E 00 00 00 00 00 00 00
  can0  700   [8]  2F 00 00 00 00 00 00 00
  can0  700   [5]  20 00 00 00 00
  can0  700   [8]  10 74 74 00 00 00 00 00
  can0  701   [3]  30 00 00
  can0  700   [8]  21 00 00 00 00 00 00 00
  can0  700   [8]  22 00 00 00 00 00 00 00
  can0  700   [8]  23 00 00 00 00 00 00 00
  can0  700   [8]  24 00 00 00 00 00 00 00
  can0  700   [8]  25 00 00 00 00 00 00 00
  can0  700   [8]  26 00 00 00 00 00 00 00
  can0  700   [8]  27 00 00 00 00 00 00 00
  can0  700   [8]  28 00 00 00 00 00 00 00
  can0  700   [8]  29 00 00 00 00 00 00 00
  can0  700   [8]  2A 00 00 00 00 00 00 00
  can0  700   [8]  2B 00 00 00 00 00 00 00
  can0  700   [8]  2C 00 00 00 00 00 00 00
  can0  700   [8]  2D 00 00 00 00 00 00 00
  can0  700   [8]  2E 00 00 00 00 00 00 00
  can0  700   [8]  2F 00 00 00 00 00 00 00
  can0  700   [6]  20 00 00 00 00 00
  can0  700   [8]  10 75 75 00 00 00 00 00
  can0  701   [3]  30 00 00
  can0  700   [8]  21 00 00 00 00 00 00 00
  can0  700   [8]  22 00 00 00 00 00 00 00
  can0  700   [8]  23 00 00 00 00 00 00 00
  can0  700   [8]  24 00 00 00 00 00 00 00
  can0  700   [8]  25 00 00 00 00 00 00 00
  can0  700   [8]  26 00 00 00 00 00 00 00
  can0  700   [8]  27 00 00 00 00 00 00 00
  can0  700   [8]  28 00 00 00 00 00 00 00
  can0  700   [8]  29 00 00 00 00 00 00 00
  can0  700   [8]  2A 00 00 00 00 00 00 00
  can0  700   [8]  2B 00 00 00 00 00 00 00
  can0  700   [8]  2C 00 00 00 00 00 00 00
  can0  700   [8]  2D 00 00 00 00 00 00 00
  can0  700   [8]  2E 00 00 00 00 00 00 00
  can0  700   [8]  2F 00 00 00 00 00 00 00
  can0  700   [7]  20 00 00 00 00 00 00
  can0  700   [8]  10 76 76 00 00 00 00 00
  can0  701   [3]  30 00 00
  can0  700   [8]  21 00 00 00 00 00 00 00
  can0  700   [8]  22 00 00 00 00 00 00 00
  can0  700   [8]  23 00 00 00 00 00 00 00
  can0  700   [8]  24 00 00 00 00 00 00 00
  can0  700   [8]  25 00 00 00 00 00 00 00
  can0  700   [8]  26 00 00 00 00 00 00 00
  can0  700   [8]  27 00 00 00 00 00 00 00
  can0  700   [8]  28 00 00 00 00 00 00 00
  can0  700   [8]  29 00 00 00 00 00 00 00
  can0  700   [8]  2A 00 00 00 00 00 00 00
  can0  700   [8]  2B 00 00 00 00 00 00 00
  can0  700   [8]  2C 00 00 00 00 00 00 00
  can0  700   [8]  2D 00 00 00 00 00 00 00
  can0  700   [8]  2E 00 00 00 00 00 00 00
  can0  700   [8]  2F 00 00 00 00 00 00 00
  can0  700   [8]  20 00 00 00 00 00 00 00
  can0  700   [8]  10 77 77 00 00 00 00 00
  can0  701   [3]  30 00 00
  can0  700   [8]  21 00 00 00 00 00 00 00
  can0  700   [8]  22 00 00 00 00 00 00 00
  can0  700   [8]  23 00 00 00 00 00 00 00
  can0  700   [8]  24 00 00 00 00 00 00 00
  can0  700   [8]  25 00 00 00 00 00 00 00
  can0  700   [8]  26 00 00 00 00 00 00 00
  can0  700   [8]  27 00 00 00 00 00 00 00
  can0  700   [8]  28 00 00 00 00 00 00 00
  can0  700   [8]  29 00 00 00 00 00 00 00
  can0  700   [8]  2A 00 00 00 00 00 00 00
  can0  700   [8]  2B 00 00 00 00 00 00 00
  can0  700   [8]  2C 00 00 00 00 00 00 00
  can0  700   [8]  2D 00 00 00 00 00 00 00
  can0  700   [8]  2E 00 00 00 00 00 00 00
  can0  700   [8]  2F 00 00 00 00 00 00 00
  can0  700   [8]  20 00 00 00 00 00 00 00
  can0  700   [2]  21 00
  can0  700   [8]  10 78 78 00 00 00 00 00
  can0  701   [3]  30 00 00
  can0  700   [8]  21 00 00 00 00 00 00 00
  can0  700   [8]  22 00 00 00 00 00 00 00
  can0  700   [8]  23 00 00 00 00 00 00 00
  can0  700   [8]  24 00 00 00 00 00 00 00
  can0  700   [8]  25 00 00 00 00 00 00 00
  can0  700   [8]  26 00 00 00 00 00 00 00
  can0  700   [8]  27 00 00 00 00 00 00 00
  can0  700   [8]  28 00 00 00 00 00 00 00
  can0  700   [8]  29 00 00 00 00 00 00 00
  can0  700   [8]  2A 00 00 00 00 00 00 00
  can0  700   [8]  2B 00 00 00 00 00 00 00
  can0  700   [8]  2C 00 00 00 00 00 00 00
  can0  700   [8]  2D 00 00 00 00 00 00 00
  can0  700   [8]  2E 00 00 00 00 00 00 00
  can0  700   [8]  2F 00 00 00 00 00 00 00
  can0  700   [8]  20 00 00 00 00 00 00 00
  can0  700   [3]  21 00 00
  can0  700   [8]  10 79 79 00 00 00 00 00
  can0  701   [3]  30 00 00
  can0  700   [8]  21 00 00 00 00 00 00 00
  can0  700   [8]  22 00 00 00 00 00 00 00
  can0  700   [8]  23 00 00 00 00 00 00 00
  can0  700   [8]  24 00 00 00 00 00 00 00
  can0  700   [8]  25 00 00 00 00 00 00 00
  can0  700   [8]  26 00 00 00 00 00 00 00
  can0  700   [8]  27 00 00 00 00 00 00 00
  can0  700   [8]  28 00 00 00 00 00 00 00
  can0  700   [8]  29 00 00 00 00 00 00 00
  can0  700   [8]  2A 00 00 00 00 00 00 00
  can0  700   [8]  2B 00 00 00 00 00 00 00
  can0  700   [8]  2C 00 00 00 00 00 00 00
  can0  700   [8]  2D 00 00 00 00 00 00 00
  can0  700   [8]  2E 00 00 00 00 00 00 00
  can0  700   [8]  2F 00 00 00 00 00 00 00
  can0  700   [8]  20 00 00 00 00 00 00 00
  can0  700   [4]  21 00 00 00
  can0  700   [8]  10 7A 7A 00 00 00 00 00
  can0  701   [3]  30 00 00
  can0  700   [8]  21 00 00 00 00 00 00 00
  can0  700   [8]  22 00 00 00 00 00 00 00
  can0  700   [8]  23 00 00 00 00 00 00 00
  can0  700   [8]  24 00 00 00 00 00 00 00
  can0  700   [8]  25 00 00 00 00 00 00 00
  can0  700   [8]  26 00 00 00 00 00 00 00
  can0  700   [8]  27 00 00 00 00 00 00 00
  can0  700   [8]  28 00 00 00 00 00 00 00
  can0  700   [8]  29 00 00 00 00 00 00 00
  can0  700   [8]  2A 00 00 00 00 00 00 00
  can0  700   [8]  2B 00 00 00 00 00 00 00
  can0  700   [8]  2C 00 00 00 00 00 00 00
  can0  700   [8]  2D 00 00 00 00 00 00 00
  can0  700   [8]  2E 00 00 00 00 00 00 00
  can0  700   [8]  2F 00 00 00 00 00 00 00
  can0  700   [8]  20 00 00 00 00 00 00 00
  can0  700   [5]  21 00 00 00 00
  can0  700   [8]  10 7B 7B 00 00 00 00 00
  can0  701   [3]  30 00 00
  can0  700   [8]  21 00 00 00 00 00 00 00
  can0  700   [8]  22 00 00 00 00 00 00 00
  can0  700   [8]  23 00 00 00 00 00 00 00
  can0  700   [8]  24 00 00 00 00 00 00 00
  can0  700   [8]  25 00 00 00 00 00 00 00
  can0  700   [8]  26 00 00 00 00 00 00 00
  can0  700   [8]  27 00 00 00 00 00 00 00
  can0  700   [8]  28 00 00 00 00 00 00 00
  can0  700   [8]  29 00 00 00 00 00 00 00
  can0  700   [8]  2A 00 00 00 00 00 00 00
  can0  700   [8]  2B 00 00 00 00 00 00 00
  can0  700   [8]  2C 00 00 00 00 00 00 00
  can0  700   [8]  2D 00 00 00 00 00 00 00
  can0  700   [8]  2E 00 00 00 00 00 00 00
  can0  700   [8]  2F 00 00 00 00 00 00 00
  can0  700   [8]  20 00 00 00 00 00 00 00
  can0  700   [6]  21 00 00 00 00 00
  can0  700   [8]  10 7C 7C 00 00 00 00 00
  can0  701   [3]  30 00 00
  can0  700   [8]  21 00 00 00 00 00 00 00
  can0  700   [8]  22 00 00 00 00 00 00 00
  can0  700   [8]  23 00 00 00 00 00 00 00
  can0  700   [8]  24 00 00 00 00 00 00 00
  can0  700   [8]  25 00 00 00 00 00 00 00
  can0  700   [8]  26 00 00 00 00 00 00 00
  can0  700   [8]  27 00 00 00 00 00 00 00
  can0  700   [8]  28 00 00 00 00 00 00 00
  can0  700   [8]  29 00 00 00 00 00 00 00
  can0  700   [8]  2A 00 00 00 00 00 00 00
  can0  700   [8]  2B 00 00 00 00 00 00 00
  can0  700   [8]  2C 00 00 00 00 00 00 00
  can0  700   [8]  2D 00 00 00 00 00 00 00
  can0  700   [8]  2E 00 00 00 00 00 00 00
  can0  700   [8]  2F 00 00 00 00 00 00 00
  can0  700   [8]  20 00 00 00 00 00 00 00
  can0  700   [7]  21 00 00 00 00 00 00
  can0  700   [8]  10 7D 7D 00 00 00 00 00
  can0  701   [3]  30 00 00
  can0  700   [8]  21 00 00 00 00 00 00 00
  can0  700   [8]  22 00 00 00 00 00 00 00
  can0  700   [8]  23 00 00 00 00 00 00 00
  can0  700   [8]  24 00 00 00 00 00 00 00
  can0  700   [8]  25 00 00 00 00 00 00 00
  can0  700   [8]  26 00 00 00 00 00 00 00
  can0  700   [8]  27 00 00 00 00 00 00 00
  can0  700   [8]  28 00 00 00 00 00 00 00
  can0  700   [8]  29 00 00 00 00 00 00 00
  can0  700   [8]  2A 00 00 00 00 00 00 00
  can0  700   [8]  2B 00 00 00 00 00 00 00
  can0  700   [8]  2C 00 00 00 00 00 00 00
  can0  700   [8]  2D 00 00 00 00 00 00 00
  can0  700   [8]  2E 00 00 00 00 00 00 00
  can0  700   [8]  2F 00 00 00 00 00 00 00
  can0  700   [8]  20 00 00 00 00 00 00 00
  can0  700   [8]  21 00 00 00 00 00 00 00
  can0  700   [8]  10 7E 7E 00 00 00 00 00
  can0  701   [3]  30 00 00
  can0  700   [8]  21 00 00 00 00 00 00 00
  can0  700   [8]  22 00 00 00 00 00 00 00
  can0  700   [8]  23 00 00 00 00 00 00 00
  can0  700   [8]  24 00 00 00 00 00 00 00
  can0  700   [8]  25 00 00 00 00 00 00 00
  can0  700   [8]  26 00 00 00 00 00 00 00
  can0  700   [8]  27 00 00 00 00 00 00 00
  can0  700   [8]  28 00 00 00 00 00 00 00
  can0  700   [8]  29 00 00 00 00 00 00 00
  can0  700   [8]  2A 00 00 00 00 00 00 00
  can0  700   [8]  2B 00 00 00 00 00 00 00
  can0  700   [8]  2C 00 00 00 00 00 00 00
  can0  700   [8]  2D 00 00 00 00 00 00 00
  can0  700   [8]  2E 00 00 00 00 00 00 00
  can0  700   [8]  2F 00 00 00 00 00 00 00
  can0  700   [8]  20 00 00 00 00 00 00 00
  can0  700   [8]  21 00 00 00 00 00 00 00
  can0  700   [2]  22 00
  can0  700   [8]  10 7F 7F 00 00 00 00 00
  can0  701   [3]  30 00 00
  can0  700   [8]  21 00 00 00 00 00 00 00
  can0  700   [8]  22 00 00 00 00 00 00 00
  can0  700   [8]  23 00 00 00 00 00 00 00
  can0  700   [8]  24 00 00 00 00 00 00 00
  can0  700   [8]  25 00 00 00 00 00 00 00
  can0  700   [8]  26 00 00 00 00 00 00 00
  can0  700   [8]  27 00 00 00 00 00 00 00
  can0  700   [8]  28 00 00 00 00 00 00 00
  can0  700   [8]  29 00 00 00 00 00 00 00
  can0  700   [8]  2A 00 00 00 00 00 00 00
  can0  700   [8]  2B 00 00 00 00 00 00 00
  can0  700   [8]  2C 00 00 00 00 00 00 00
  can0  700   [8]  2D 00 00 00 00 00 00 00
  can0  700   [8]  2E 00 00 00 00 00 00 00
  can0  700   [8]  2F 00 00 00 00 00 00 00
  can0  700   [8]  20 00 00 00 00 00 00 00
  can0  700   [8]  21 00 00 00 00 00 00 00
  can0  700   [3]  22 00 00
  can0  700   [8]  10 80 80 00 00 00 00 00
  can0  701   [3]  30 00 00
  can0  700   [8]  21 00 00 00 00 00 00 00
  can0  700   [8]  22 00 00 00 00 00 00 00
  can0  700   [8]  23 00 00 00 00 00 00 00
  can0  700   [8]  24 00 00 00 00 00 00 00
  can0  700   [8]  25 00 00 00 00 00 00 00
  can0  700   [8]  26 00 00 00 00 00 00 00
  can0  700   [8]  27 00 00 00 00 00 00 00
  can0  700   [8]  28 00 00 00 00 00 00 00
  can0  700   [8]  29 00 00 00 00 00 00 00
  can0  700   [8]  2A 00 00 00 00 00 00 00
  can0  700   [8]  2B 00 00 00 00 00 00 00
  can0  700   [8]  2C 00 00 00 00 00 00 00
  can0  700   [8]  2D 00 00 00 00 00 00 00
  can0  700   [8]  2E 00 00 00 00 00 00 00
  can0  700   [8]  2F 00 00 00 00 00 00 00
  can0  700   [8]  20 00 00 00 00 00 00 00
  can0  700   [8]  21 00 00 00 00 00 00 00
  can0  700   [4]  22 00 00 00
  can0  700   [8]  10 81 81 00 00 00 00 00
  can0  701   [3]  30 00 00
  can0  700   [8]  21 00 00 00 00 00 00 00
  can0  700   [8]  22 00 00 00 00 00 00 00
  can0  700   [8]  23 00 00 00 00 00 00 00
  can0  700   [8]  24 00 00 00 00 00 00 00
  can0  700   [8]  25 00 00 00 00 00 00 00
  can0  700   [8]  26 00 00 00 00 00 00 00
  can0  700   [8]  27 00 00 00 00 00 00 00
  can0  700   [8]  28 00 00 00 00 00 00 00
  can0  700   [8]  29 00 00 00 00 00 00 00
  can0  700   [8]  2A 00 00 00 00 00 00 00
  can0  700   [8]  2B 00 00 00 00 00 00 00
  can0  700   [8]  2C 00 00 00 00 00 00 00
  can0  700   [8]  2D 00 00 00 00 00 00 00
  can0  700   [8]  2E 00 00 00 00 00 00 00
  can0  700   [8]  2F 00 00 00 00 00 00 00
  can0  700   [8]  20 00 00 00 00 00 00 00
  can0  700   [8]  21 00 00 00 00 00 00 00
  can0  700   [5]  22 00 00 00 00
  can0  700   [8]  10 82 82 00 00 00 00 00
  can0  701   [3]  30 00 00
  can0  700   [8]  21 00 00 00 00 00 00 00
  can0  700   [8]  22 00 00 00 00 00 00 00
  can0  700   [8]  23 00 00 00 00 00 00 00
  can0  700   [8]  24 00 00 00 00 00 00 00
  can0  700   [8]  25 00 00 00 00 00 00 00
  can0  700   [8]  26 00 00 00 00 00 00 00
  can0  700   [8]  27 00 00 00 00 00 00 00
  can0  700   [8]  28 00 00 00 00 00 00 00
  can0  700   [8]  29 00 00 00 00 00 00 00
  can0  700   [8]  2A 00 00 00 00 00 00 00
  can0  700   [8]  2B 00 00 00 00 00 00 00
  can0  700   [8]  2C 00 00 00 00 00 00 00
  can0  700   [8]  2D 00 00 00 00 00 00 00
  can0  700   [8]  2E 00 00 00 00 00 00 00
  can0  700   [8]  2F 00 00 00 00 00 00 00
  can0  700   [8]  20 00 00 00 00 00 00 00
  can0  700   [8]  21 00 00 00 00 00 00 00
  can0  700   [6]  22 00 00 00 00 00
  can0  700   [8]  10 83 83 00 00 00 00 00
  can0  701   [3]  30 00 00
  can0  700   [8]  21 00 00 00 00 00 00 00
  can0  700   [8]  22 00 00 00 00 00 00 00
  can0  700   [8]  23 00 00 00 00 00 00 00
  can0  700   [8]  24 00 00 00 00 00 00 00
  can0  700   [8]  25 00 00 00 00 00 00 00
  can0  700   [8]  26 00 00 00 00 00 00 00
  can0  700   [8]  27 00 00 00 00 00 00 00
  can0  700   [8]  28 00 00 00 00 00 00 00
  can0  700   [8]  29 00 00 00 00 00 00 00
  can0  700   [8]  2A 00 00 00 00 00 00 00
  can0  700   [8]  2B 00 00 00 00 00 00 00
  can0  700   [8]  2C 00 00 00 00 00 00 00
  can0  700   [8]  2D 00 00 00 00 00 00 00
  can0  700   [8]  2E 00 00 00 00 00 00 00
  can0  700   [8]  2F 00 00 00 00 00 00 00
  can0  700   [8]  20 00 00 00 00 00 00 00
  can0  700   [8]  21 00 00 00 00 00 00 00
  can0  700   [7]  22 00 00 00 00 00 00
  can0  700   [8]  10 84 84 00 00 00 00 00
  can0  701   [3]  30 00 00
  can0  700   [8]  21 00 00 00 00 00 00 00
  can0  700   [8]  22 00 00 00 00 00 00 00
  can0  700   [8]  23 00 00 00 00 00 00 00
  can0  700   [8]  24 00 00 00 00 00 00 00
  can0  700   [8]  25 00 00 00 00 00 00 00
  can0  700   [8]  26 00 00 00 00 00 00 00
  can0  700   [8]  27 00 00 00 00 00 00 00
  can0  700   [8]  28 00 00 00 00 00 00 00
  can0  700   [8]  29 00 00 00 00 00 00 00
  can0  700   [8]  2A 00 00 00 00 00 00 00
  can0  700   [8]  2B 00 00 00 00 00 00 00
  can0  700   [8]  2C 00 00 00 00 00 00 00
  can0  700   [8]  2D 00 00 00 00 00 00 00
  can0  700   [8]  2E 00 00 00 00 00 00 00
  can0  700   [8]  2F 00 00 00 00 00 00 00
  can0  700   [8]  20 00 00 00 00 00 00 00
  can0  700   [8]  21 00 00 00 00 00 00 00
  can0  700   [8]  22 00 00 00 00 00 00 00
  can0  700   [8]  10 85 85 00 00 00 00 00
  can0  701   [3]  30 00 00
  can0  700   [8]  21 00 00 00 00 00 00 00
  can0  700   [8]  22 00 00 00 00 00 00 00
  can0  700   [8]  23 00 00 00 00 00 00 00
  can0  700   [8]  24 00 00 00 00 00 00 00
  can0  700   [8]  25 00 00 00 00 00 00 00
  can0  700   [8]  26 00 00 00 00 00 00 00
  can0  700   [8]  27 00 00 00 00 00 00 00
  can0  700   [8]  28 00 00 00 00 00 00 00
  can0  700   [8]  29 00 00 00 00 00 00 00
  can0  700   [8]  2A 00 00 00 00 00 00 00
  can0  700   [8]  2B 00 00 00 00 00 00 00
  can0  700   [8]  2C 00 00 00 00 00 00 00
  can0  700   [8]  2D 00 00 00 00 00 00 00
  can0  700   [8]  2E 00 00 00 00 00 00 00
  can0  700   [8]  2F 00 00 00 00 00 00 00
  can0  700   [8]  20 00 00 00 00 00 00 00
  can0  700   [8]  21 00 00 00 00 00 00 00
  can0  700   [8]  22 00 00 00 00 00 00 00
  can0  700   [2]  23 00
  can0  700   [8]  10 86 86 00 00 00 00 00
  can0  701   [3]  30 00 00
  can0  700   [8]  21 00 00 00 00 00 00 00
  can0  700   [8]  22 00 00 00 00 00 00 00
  can0  700   [8]  23 00 00 00 00 00 00 00
  can0  700   [8]  24 00 00 00 00 00 00 00
  can0  700   [8]  25 00 00 00 00 00 00 00
  can0  700   [8]  26 00 00 00 00 00 00 00
  can0  700   [8]  27 00 00 00 00 00 00 00
  can0  700   [8]  28 00 00 00 00 00 00 00
  can0  700   [8]  29 00 00 00 00 00 00 00
  can0  700   [8]  2A 00 00 00 00 00 00 00
  can0  700   [8]  2B 00 00 00 00 00 00 00
  can0  700   [8]  2C 00 00 00 00 00 00 00
  can0  700   [8]  2D 00 00 00 00 00 00 00
  can0  700   [8]  2E 00 00 00 00 00 00 00
  can0  700   [8]  2F 00 00 00 00 00 00 00
  can0  700   [8]  20 00 00 00 00 00 00 00
  can0  700   [8]  21 00 00 00 00 00 00 00
  can0  700   [8]  22 00 00 00 00 00 00 00
  can0  700   [3]  23 00 00
  can0  700   [8]  10 87 87 00 00 00 00 00
  can0  701   [3]  30 00 00
  can0  700   [8]  21 00 00 00 00 00 00 00
  can0  700   [8]  22 00 00 00 00 00 00 00
  can0  700   [8]  23 00 00 00 00 00 00 00
  can0  700   [8]  24 00 00 00 00 00 00 00
  can0  700   [8]  25 00 00 00 00 00 00 00
  can0  700   [8]  26 00 00 00 00 00 00 00
  can0  700   [8]  27 00 00 00 00 00 00 00
  can0  700   [8]  28 00 00 00 00 00 00 00
  can0  700   [8]  29 00 00 00 00 00 00 00
  can0  700   [8]  2A 00 00 00 00 00 00 00
  can0  700   [8]  2B 00 00 00 00 00 00 00
  can0  700   [8]  2C 00 00 00 00 00 00 00
  can0  700   [8]  2D 00 00 00 00 00 00 00
  can0  700   [8]  2E 00 00 00 00 00 00 00
  can0  700   [8]  2F 00 00 00 00 00 00 00
  can0  700   [8]  20 00 00 00 00 00 00 00
  can0  700   [8]  21 00 00 00 00 00 00 00
  can0  700   [8]  22 00 00 00 00 00 00 00
  can0  700   [4]  23 00 00 00
  can0  700   [8]  10 88 88 00 00 00 00 00
  can0  701   [3]  30 00 00
  can0  700   [8]  21 00 00 00 00 00 00 00
  can0  700   [8]  22 00 00 00 00 00 00 00
  can0  700   [8]  23 00 00 00 00 00 00 00
  can0  700   [8]  24 00 00 00 00 00 00 00
  can0  700   [8]  25 00 00 00 00 00 00 00
  can0  700   [8]  26 00 00 00 00 00 00 00
  can0  700   [8]  27 00 00 00 00 00 00 00
  can0  700   [8]  28 00 00 00 00 00 00 00
  can0  700   [8]  29 00 00 00 00 00 00 00
  can0  700   [8]  2A 00 00 00 00 00 00 00
  can0  700   [8]  2B 00 00 00 00 00 00 00
  can0  700   [8]  2C 00 00 00 00 00 00 00
  can0  700   [8]  2D 00 00 00 00 00 00 00
  can0  700   [8]  2E 00 00 00 00 00 00 00
  can0  700   [8]  2F 00 00 00 00 00 00 00
  can0  700   [8]  20 00 00 00 00 00 00 00
  can0  700   [8]  21 00 00 00 00 00 00 00
  can0  700   [8]  22 00 00 00 00 00 00 00
  can0  700   [5]  23 00 00 00 00
  can0  700   [8]  10 89 89 00 00 00 00 00
  can0  701   [3]  30 00 00
  can0  700   [8]  21 00 00 00 00 00 00 00
  can0  700   [8]  22 00 00 00 00 00 00 00
  can0  700   [8]  23 00 00 00 00 00 00 00
  can0  700   [8]  24 00 00 00 00 00 00 00
  can0  700   [8]  25 00 00 00 00 00 00 00
  can0  700   [8]  26 00 00 00 00 00 00 00
  can0  700   [8]  27 00 00 00 00 00 00 00
  can0  700   [8]  28 00 00 00 00 00 00 00
  can0  700   [8]  29 00 00 00 00 00 00 00
  can0  700   [8]  2A 00 00 00 00 00 00 00
  can0  700   [8]  2B 00 00 00 00 00 00 00
  can0  700   [8]  2C 00 00 00 00 00 00 00
  can0  700   [8]  2D 00 00 00 00 00 00 00
  can0  700   [8]  2E 00 00 00 00 00 00 00
  can0  700   [8]  2F 00 00 00 00 00 00 00
  can0  700   [8]  20 00 00 00 00 00 00 00
  can0  700   [8]  21 00 00 00 00 00 00 00
  can0  700   [8]  22 00 00 00 00 00 00 00
  can0  700   [6]  23 00 00 00 00 00
  can0  700   [8]  10 8A 8A 00 00 00 00 00
  can0  701   [3]  30 00 00
  can0  700   [8]  21 00 00 00 00 00 00 00
  can0  700   [8]  22 00 00 00 00 00 00 00
  can0  700   [8]  23 00 00 00 00 00 00 00
  can0  700   [8]  24 00 00 00 00 00 00 00
  can0  700   [8]  25 00 00 00 00 00 00 00
  can0  700   [8]  26 00 00 00 00 00 00 00
  can0  700   [8]  27 00 00 00 00 00 00 00
  can0  700   [8]  28 00 00 00 00 00 00 00
  can0  700   [8]  29 00 00 00 00 00 00 00
  can0  700   [8]  2A 00 00 00 00 00 00 00
  can0  700   [8]  2B 00 00 00 00 00 00 00
  can0  700   [8]  2C 00 00 00 00 00 00 00
  can0  700   [8]  2D 00 00 00 00 00 00 00
  can0  700   [8]  2E 00 00 00 00 00 00 00
  can0  700   [8]  2F 00 00 00 00 00 00 00
  can0  700   [8]  20 00 00 00 00 00 00 00
  can0  700   [8]  21 00 00 00 00 00 00 00
  can0  700   [8]  22 00 00 00 00 00 00 00
  can0  700   [7]  23 00 00 00 00 00 00
  can0  700   [8]  10 8B 8B 00 00 00 00 00
  can0  701   [3]  30 00 00
  can0  700   [8]  21 00 00 00 00 00 00 00
  can0  700   [8]  22 00 00 00 00 00 00 00
  can0  700   [8]  23 00 00 00 00 00 00 00
  can0  700   [8]  24 00 00 00 00 00 00 00
  can0  700   [8]  25 00 00 00 00 00 00 00
  can0  700   [8]  26 00 00 00 00 00 00 00
  can0  700   [8]  27 00 00 00 00 00 00 00
  can0  700   [8]  28 00 00 00 00 00 00 00
  can0  700   [8]  29 00 00 00 00 00 00 00
  can0  700   [8]  2A 00 00 00 00 00 00 00
  can0  700   [8]  2B 00 00 00 00 00 00 00
  can0  700   [8]  2C 00 00 00 00 00 00 00
  can0  700   [8]  2D 00 00 00 00 00 00 00
  can0  700   [8]  2E 00 00 00 00 00 00 00
  can0  700   [8]  2F 00 00 00 00 00 00 00
  can0  700   [8]  20 00 00 00 00 00 00 00
  can0  700   [8]  21 00 00 00 00 00 00 00
  can0  700   [8]  22 00 00 00 00 00 00 00
  can0  700   [8]  23 00 00 00 00 00 00 00
  can0  700   [8]  10 8C 8C 00 00 00 00 00
  can0  701   [3]  30 00 00
  can0  700   [8]  21 00 00 00 00 00 00 00
  can0  700   [8]  22 00 00 00 00 00 00 00
  can0  700   [8]  23 00 00 00 00 00 00 00
  can0  700   [8]  24 00 00 00 00 00 00 00
  can0  700   [8]  25 00 00 00 00 00 00 00
  can0  700   [8]  26 00 00 00 00 00 00 00
  can0  700   [8]  27 00 00 00 00 00 00 00
  can0  700   [8]  28 00 00 00 00 00 00 00
  can0  700   [8]  29 00 00 00 00 00 00 00
  can0  700   [8]  2A 00 00 00 00 00 00 00
  can0  700   [8]  2B 00 00 00 00 00 00 00
  can0  700   [8]  2C 00 00 00 00 00 00 00
  can0  700   [8]  2D 00 00 00 00 00 00 00
  can0  700   [8]  2E 00 00 00 00 00 00 00
  can0  700   [8]  2F 00 00 00 00 00 00 00
  can0  700   [8]  20 00 00 00 00 00 00 00
  can0  700   [8]  21 00 00 00 00 00 00 00
  can0  700   [8]  22 00 00 00 00 00 00 00
  can0  700   [8]  23 00 00 00 00 00 00 00
  can0  700   [2]  24 00
  can0  700   [8]  10 8D 8D 00 00 00 00 00
  can0  701   [3]  30 00 00
  can0  700   [8]  21 00 00 00 00 00 00 00
  can0  700   [8]  22 00 00 00 00 00 00 00
  can0  700   [8]  23 00 00 00 00 00 00 00
  can0  700   [8]  24 00 00 00 00 00 00 00
  can0  700   [8]  25 00 00 00 00 00 00 00
  can0  700   [8]  26 00 00 00 00 00 00 00
  can0  700   [8]  27 00 00 00 00 00 00 00
  can0  700   [8]  28 00 00 00 00 00 00 00
  can0  700   [8]  29 00 00 00 00 00 00 00
  can0  700   [8]  2A 00 00 00 00 00 00 00
  can0  700   [8]  2B 00 00 00 00 00 00 00
  can0  700   [8]  2C 00 00 00 00 00 00 00
  can0  700   [8]  2D 00 00 00 00 00 00 00
  can0  700   [8]  2E 00 00 00 00 00 00 00
  can0  700   [8]  2F 00 00 00 00 00 00 00
  can0  700   [8]  20 00 00 00 00 00 00 00
  can0  700   [8]  21 00 00 00 00 00 00 00
  can0  700   [8]  22 00 00 00 00 00 00 00
  can0  700   [8]  23 00 00 00 00 00 00 00
  can0  700   [3]  24 00 00
  can0  700   [8]  10 8E 8E 00 00 00 00 00
  can0  701   [3]  30 00 00
  can0  700   [8]  21 00 00 00 00 00 00 00
  can0  700   [8]  22 00 00 00 00 00 00 00
  can0  700   [8]  23 00 00 00 00 00 00 00
  can0  700   [8]  24 00 00 00 00 00 00 00
  can0  700   [8]  25 00 00 00 00 00 00 00
  can0  700   [8]  26 00 00 00 00 00 00 00
  can0  700   [8]  27 00 00 00 00 00 00 00
  can0  700   [8]  28 00 00 00 00 00 00 00
  can0  700   [8]  29 00 00 00 00 00 00 00
  can0  700   [8]  2A 00 00 00 00 00 00 00
  can0  700   [8]  2B 00 00 00 00 00 00 00
  can0  700   [8]  2C 00 00 00 00 00 00 00
  can0  700   [8]  2D 00 00 00 00 00 00 00
  can0  700   [8]  2E 00 00 00 00 00 00 00
  can0  700   [8]  2F 00 00 00 00 00 00 00
  can0  700   [8]  20 00 00 00 00 00 00 00
  can0  700   [8]  21 00 00 00 00 00 00 00
  can0  700   [8]  22 00 00 00 00 00 00 00
  can0  700   [8]  23 00 00 00 00 00 00 00
  can0  700   [4]  24 00 00 00
  can0  700   [8]  10 8F 8F 00 00 00 00 00
  can0  701   [3]  30 00 00
  can0  700   [8]  21 00 00 00 00 00 00 00
  can0  700   [8]  22 00 00 00 00 00 00 00
  can0  700   [8]  23 00 00 00 00 00 00 00
  can0  700   [8]  24 00 00 00 00 00 00 00
  can0  700   [8]  25 00 00 00 00 00 00 00
  can0  700   [8]  26 00 00 00 00 00 00 00
  can0  700   [8]  27 00 00 00 00 00 00 00
  can0  700   [8]  28 00 00 00 00 00 00 00
  can0  700   [8]  29 00 00 00 00 00 00 00
  can0  700   [8]  2A 00 00 00 00 00 00 00
  can0  700   [8]  2B 00 00 00 00 00 00 00
  can0  700   [8]  2C 00 00 00 00 00 00 00
  can0  700   [8]  2D 00 00 00 00 00 00 00
  can0  700   [8]  2E 00 00 00 00 00 00 00
  can0  700   [8]  2F 00 00 00 00 00 00 00
  can0  700   [8]  20 00 00 00 00 00 00 00
  can0  700   [8]  21 00 00 00 00 00 00 00
  can0  700   [8]  22 00 00 00 00 00 00 00
  can0  700   [8]  23 00 00 00 00 00 00 00
  can0  700   [5]  24 00 00 00 00
  can0  700   [8]  10 90 90 00 00 00 00 00
  can0  701   [3]  30 00 00
  can0  700   [8]  21 00 00 00 00 00 00 00
  can0  700   [8]  22 00 00 00 00 00 00 00
  can0  700   [8]  23 00 00 00 00 00 00 00
  can0  700   [8]  24 00 00 00 00 00 00 00
  can0  700   [8]  25 00 00 00 00 00 00 00
  can0  700   [8]  26 00 00 00 00 00 00 00
  can0  700   [8]  27 00 00 00 00 00 00 00
  can0  700   [8]  28 00 00 00 00 00 00 00
  can0  700   [8]  29 00 00 00 00 00 00 00
  can0  700   [8]  2A 00 00 00 00 00 00 00
  can0  700   [8]  2B 00 00 00 00 00 00 00
  can0  700   [8]  2C 00 00 00 00 00 00 00
  can0  700   [8]  2D 00 00 00 00 00 00 00
  can0  700   [8]  2E 00 00 00 00 00 00 00
  can0  700   [8]  2F 00 00 00 00 00 00 00
  can0  700   [8]  20 00 00 00 00 00 00 00
  can0  700   [8]  21 00 00 00 00 00 00 00
  can0  700   [8]  22 00 00 00 00 00 00 00
  can0  700   [8]  23 00 00 00 00 00 00 00
  can0  700   [6]  24 00 00 00 00 00
  can0  700   [8]  10 91 91 00 00 00 00 00
  can0  701   [3]  30 00 00
  can0  700   [8]  21 00 00 00 00 00 00 00
  can0  700   [8]  22 00 00 00 00 00 00 00
  can0  700   [8]  23 00 00 00 00 00 00 00
  can0  700   [8]  24 00 00 00 00 00 00 00
  can0  700   [8]  25 00 00 00 00 00 00 00
  can0  700   [8]  26 00 00 00 00 00 00 00
  can0  700   [8]  27 00 00 00 00 00 00 00
  can0  700   [8]  28 00 00 00 00 00 00 00
  can0  700   [8]  29 00 00 00 00 00 00 00
  can0  700   [8]  2A 00 00 00 00 00 00 00
  can0  700   [8]  2B 00 00 00 00 00 00 00
  can0  700   [8]  2C 00 00 00 00 00 00 00
  can0  700   [8]  2D 00 00 00 00 00 00 00
  can0  700   [8]  2E 00 00 00 00 00 00 00
  can0  700   [8]  2F 00 00 00 00 00 00 00
  can0  700   [8]  20 00 00 00 00 00 00 00
  can0  700   [8]  21 00 00 00 00 00 00 00
  can0  700   [8]  22 00 00 00 00 00 00 00
  can0  700   [8]  23 00 00 00 00 00 00 00
  can0  700   [7]  24 00 00 00 00 00 00
  can0  700   [8]  10 92 92 00 00 00 00 00
  can0  701   [3]  30 00 00
  can0  700   [8]  21 00 00 00 00 00 00 00
  can0  700   [8]  22 00 00 00 00 00 00 00
  can0  700   [8]  23 00 00 00 00 00 00 00
  can0  700   [8]  24 00 00 00 00 00 00 00
  can0  700   [8]  25 00 00 00 00 00 00 00
  can0  700   [8]  26 00 00 00 00 00 00 00
  can0  700   [8]  27 00 00 00 00 00 00 00
  can0  700   [8]  28 00 00 00 00 00 00 00
  can0  700   [8]  29 00 00 00 00 00 00 00
  can0  700   [8]  2A 00 00 00 00 00 00 00
  can0  700   [8]  2B 00 00 00 00 00 00 00
  can0  700   [8]  2C 00 00 00 00 00 00 00
  can0  700   [8]  2D 00 00 00 00 00 00 00
  can0  700   [8]  2E 00 00 00 00 00 00 00
  can0  700   [8]  2F 00 00 00 00 00 00 00
  can0  700   [8]  20 00 00 00 00 00 00 00
  can0  700   [8]  21 00 00 00 00 00 00 00
  can0  700   [8]  22 00 00 00 00 00 00 00
  can0  700   [8]  23 00 00 00 00 00 00 00
  can0  700   [8]  24 00 00 00 00 00 00 00
  can0  700   [8]  10 93 93 00 00 00 00 00
  can0  701   [3]  30 00 00
  can0  700   [8]  21 00 00 00 00 00 00 00
  can0  700   [8]  22 00 00 00 00 00 00 00
  can0  700   [8]  23 00 00 00 00 00 00 00
  can0  700   [8]  24 00 00 00 00 00 00 00
  can0  700   [8]  25 00 00 00 00 00 00 00
  can0  700   [8]  26 00 00 00 00 00 00 00
  can0  700   [8]  27 00 00 00 00 00 00 00
  can0  700   [8]  28 00 00 00 00 00 00 00
  can0  700   [8]  29 00 00 00 00 00 00 00
  can0  700   [8]  2A 00 00 00 00 00 00 00
  can0  700   [8]  2B 00 00 00 00 00 00 00
  can0  700   [8]  2C 00 00 00 00 00 00 00
  can0  700   [8]  2D 00 00 00 00 00 00 00
  can0  700   [8]  2E 00 00 00 00 00 00 00
  can0  700   [8]  2F 00 00 00 00 00 00 00
  can0  700   [8]  20 00 00 00 00 00 00 00
  can0  700   [8]  21 00 00 00 00 00 00 00
  can0  700   [8]  22 00 00 00 00 00 00 00
  can0  700   [8]  23 00 00 00 00 00 00 00
  can0  700   [8]  24 00 00 00 00 00 00 00
  can0  700   [2]  25 00
  can0  700   [8]  10 94 94 00 00 00 00 00
  can0  701   [3]  30 00 00
  can0  700   [8]  21 00 00 00 00 00 00 00
  can0  700   [8]  22 00 00 00 00 00 00 00
  can0  700   [8]  23 00 00 00 00 00 00 00
  can0  700   [8]  24 00 00 00 00 00 00 00
  can0  700   [8]  25 00 00 00 00 00 00 00
  can0  700   [8]  26 00 00 00 00 00 00 00
  can0  700   [8]  27 00 00 00 00 00 00 00
  can0  700   [8]  28 00 00 00 00 00 00 00
  can0  700   [8]  29 00 00 00 00 00 00 00
  can0  700   [8]  2A 00 00 00 00 00 00 00
  can0  700   [8]  2B 00 00 00 00 00 00 00
  can0  700   [8]  2C 00 00 00 00 00 00 00
  can0  700   [8]  2D 00 00 00 00 00 00 00
  can0  700   [8]  2E 00 00 00 00 00 00 00
  can0  700   [8]  2F 00 00 00 00 00 00 00
  can0  700   [8]  20 00 00 00 00 00 00 00
  can0  700   [8]  21 00 00 00 00 00 00 00
  can0  700   [8]  22 00 00 00 00 00 00 00
  can0  700   [8]  23 00 00 00 00 00 00 00
  can0  700   [8]  24 00 00 00 00 00 00 00
  can0  700   [3]  25 00 00
  can0  700   [8]  10 95 95 00 00 00 00 00
  can0  701   [3]  30 00 00
  can0  700   [8]  21 00 00 00 00 00 00 00
  can0  700   [8]  22 00 00 00 00 00 00 00
  can0  700   [8]  23 00 00 00 00 00 00 00
  can0  700   [8]  24 00 00 00 00 00 00 00
  can0  700   [8]  25 00 00 00 00 00 00 00
  can0  700   [8]  26 00 00 00 00 00 00 00
  can0  700   [8]  27 00 00 00 00 00 00 00
  can0  700   [8]  28 00 00 00 00 00 00 00
  can0  700   [8]  29 00 00 00 00 00 00 00
  can0  700   [8]  2A 00 00 00 00 00 00 00
  can0  700   [8]  2B 00 00 00 00 00 00 00
  can0  700   [8]  2C 00 00 00 00 00 00 00
  can0  700   [8]  2D 00 00 00 00 00 00 00
  can0  700   [8]  2E 00 00 00 00 00 00 00
  can0  700   [8]  2F 00 00 00 00 00 00 00
  can0  700   [8]  20 00 00 00 00 00 00 00
  can0  700   [8]  21 00 00 00 00 00 00 00
  can0  700   [8]  22 00 00 00 00 00 00 00
  can0  700   [8]  23 00 00 00 00 00 00 00
  can0  700   [8]  24 00 00 00 00 00 00 00
  can0  700   [4]  25 00 00 00
  can0  700   [8]  10 96 96 00 00 00 00 00
  can0  701   [3]  30 00 00
