  can0  700   [2]  01 00
  can0  700   [3]  02 01 00
  can0  700   [4]  03 02 00 00
  can0  700   [5]  04 03 00 00 00
  can0  700   [6]  05 04 00 00 00 00
  can0  700   [7]  06 05 00 00 00 00 00
  can0  700   [8]  07 06 00 00 00 00 00 00
  can0  700   [8]  10 08 07 00 00 00 00 00
  can0  701   [3]  30 00 00
  can0  700   [3]  21 00 00
  can0  700   [8]  10 09 08 00 00 00 00 00
  can0  701   [3]  30 00 00
  can0  700   [4]  21 00 00 00
  can0  700   [8]  10 0A 09 00 00 00 00 00
  can0  701   [3]  30 00 00
  can0  700   [5]  21 00 00 00 00
  can0  700   [8]  10 0B 0A 00 00 00 00 00
  can0  701   [3]  30 00 00
  can0  700   [6]  21 00 00 00 00 00
  can0  700   [8]  10 0C 0B 00 00 00 00 00
  can0  701   [3]  30 00 00
  can0  700   [7]  21 00 00 00 00 00 00
  can0  700   [8]  10 0D 0C 00 00 00 00 00
  can0  701   [3]  30 00 00
  can0  700   [8]  21 00 00 00 00 00 00 00
  can0  700   [8]  10 0E 0D 00 00 00 00 00
  can0  701   [3]  30 00 00
  can0  700   [8]  21 00 00 00 00 00 00 00
  can0  700   [2]  22 00
  can0  700   [8]  10 0F 0E 00 00 00 00 00
  can0  701   [3]  30 00 00
  can0  700   [8]  21 00 00 00 00 00 00 00
  can0  700   [3]  22 00 00
  can0  700   [8]  10 10 0F 00 00 00 00 00
  can0  701   [3]  30 00 00
  can0  700   [8]  21 00 00 00 00 00 00 00
  can0  700   [4]  22 00 00 00
  can0  700   [8]  10 11 10 00 00 00 00 00
  can0  701   [3]  30 00 00
  can0  700   [8]  21 00 00 00 00 00 00 00
  can0  700   [5]  22 00 00 00 00
  can0  700   [8]  10 12 11 00 00 00 00 00
  can0  701   [3]  30 00 00
  can0  700   [8]  21 00 00 00 00 00 00 00
  can0  700   [6]  22 00 00 00 00 00
  can0  700   [8]  10 13 12 00 00 00 00 00
  can0  701   [3]  30 00 00
  can0  700   [8]  21 00 00 00 00 00 00 00
  can0  700   [7]  22 00 00 00 00 00 00
  can0  700   [8]  10 14 13 00 00 00 00 00
  can0  701   [3]  30 00 00
  can0  700   [8]  21 00 00 00 00 00 00 00
  can0  700   [8]  22 00 00 00 00 00 00 00
  can0  700   [8]  10 15 14 00 00 00 00 00
  can0  701   [3]  30 00 00
  can0  700   [8]  21 00 00 00 00 00 00 00
  can0  700   [8]  22 00 00 00 00 00 00 00
  can0  700   [2]  23 00
  can0  700   [8]  10 16 15 00 00 00 00 00
  can0  701   [3]  30 00 00
  can0  700   [8]  21 00 00 00 00 00 00 00
  can0  700   [8]  22 00 00 00 00 00 00 00
  can0  700   [3]  23 00 00
  can0  700   [8]  10 17 16 00 00 00 00 00
  can0  701   [3]  30 00 00
  can0  700   [8]  21 00 00 00 00 00 00 00
  can0  700   [8]  22 00 00 00 00 00 00 00
  can0  700   [4]  23 00 00 00
  can0  700   [8]  10 18 17 00 00 00 00 00
  can0  701   [3]  30 00 00
  can0  700   [8]  21 00 00 00 00 00 00 00
  can0  700   [8]  22 00 00 00 00 00 00 00
  can0  700   [5]  23 00 00 00 00
  can0  700   [8]  10 19 18 00 00 00 00 00
  can0  701   [3]  30 00 00
  can0  700   [8]  21 00 00 00 00 00 00 00
  can0  700   [8]  22 00 00 00 00 00 00 00
  can0  700   [6]  23 00 00 00 00 00
  can0  700   [8]  10 1A 19 00 00 00 00 00
  can0  701   [3]  30 00 00
  can0  700   [8]  21 00 00 00 00 00 00 00
  can0  700   [8]  22 00 00 00 00 00 00 00
  can0  700   [7]  23 00 00 00 00 00 00
  can0  700   [8]  10 1B 1A 00 00 00 00 00
  can0  701   [3]  30 00 00
  can0  700   [8]  21 00 00 00 00 00 00 00
  can0  700   [8]  22 00 00 00 00 00 00 00
  can0  700   [8]  23 00 00 00 00 00 00 00
  can0  700   [8]  10 1C 1B 00 00 00 00 00
  can0  701   [3]  30 00 00
  can0  700   [8]  21 00 00 00 00 00 00 00
  can0  700   [8]  22 00 00 00 00 00 00 00
  can0  700   [8]  23 00 00 00 00 00 00 00
  can0  700   [2]  24 00
  can0  700   [8]  10 1D 1C 00 00 00 00 00
  can0  701   [3]  30 00 00
  can0  700   [8]  21 00 00 00 00 00 00 00
  can0  700   [8]  22 00 00 00 00 00 00 00
  can0  700   [8]  23 00 00 00 00 00 00 00
  can0  700   [3]  24 00 00
  can0  700   [8]  10 1E 1D 00 00 00 00 00
  can0  701   [3]  30 00 00
  can0  700   [8]  21 00 00 00 00 00 00 00
  can0  700   [8]  22 00 00 00 00 00 00 00
  can0  700   [8]  23 00 00 00 00 00 00 00
  can0  700   [4]  24 00 00 00
  can0  700   [8]  10 1F 1E 00 00 00 00 00
  can0  701   [3]  30 00 00
  can0  700   [8]  21 00 00 00 00 00 00 00
  can0  700   [8]  22 00 00 00 00 00 00 00
  can0  700   [8]  23 00 00 00 00 00 00 00
  can0  700   [5]  24 00 00 00 00
  can0  700   [8]  10 20 1F 00 00 00 00 00
  can0  701   [3]  30 00 00
  can0  700   [8]  21 00 00 00 00 00 00 00
  can0  700   [8]  22 00 00 00 00 00 00 00
  can0  700   [8]  23 00 00 00 00 00 00 00
  can0  700   [6]  24 00 00 00 00 00
  can0  700   [8]  10 21 20 00 00 00 00 00
  can0  701   [3]  30 00 00
  can0  700   [8]  21 00 00 00 00 00 00 00
  can0  700   [8]  22 00 00 00 00 00 00 00
  can0  700   [8]  23 00 00 00 00 00 00 00
  can0  700   [7]  24 00 00 00 00 00 00
  can0  700   [8]  10 22 21 00 00 00 00 00
  can0  701   [3]  30 00 00
  can0  700   [8]  21 00 00 00 00 00 00 00
  can0  700   [8]  22 00 00 00 00 00 00 00
  can0  700   [8]  23 00 00 00 00 00 00 00
  can0  700   [8]  24 00 00 00 00 00 00 00
  can0  700   [8]  10 23 22 00 00 00 00 00
  can0  701   [3]  30 00 00
  can0  700   [8]  21 00 00 00 00 00 00 00
  can0  700   [8]  22 00 00 00 00 00 00 00
  can0  700   [8]  23 00 00 00 00 00 00 00
  can0  700   [8]  24 00 00 00 00 00 00 00
  can0  700   [2]  25 00
  can0  700   [8]  10 24 23 00 00 00 00 00
  can0  701   [3]  30 00 00
  can0  700   [8]  21 00 00 00 00 00 00 00
  can0  700   [8]  22 00 00 00 00 00 00 00
  can0  700   [8]  23 00 00 00 00 00 00 00
  can0  700   [8]  24 00 00 00 00 00 00 00
  can0  700   [3]  25 00 00
  can0  700   [8]  10 25 24 00 00 00 00 00
  can0  701   [3]  30 00 00
  can0  700   [8]  21 00 00 00 00 00 00 00
  can0  700   [8]  22 00 00 00 00 00 00 00
  can0  700   [8]  23 00 00 00 00 00 00 00
  can0  700   [8]  24 00 00 00 00 00 00 00
  can0  700   [4]  25 00 00 00
  can0  700   [8]  10 26 25 00 00 00 00 00
  can0  701   [3]  30 00 00
  can0  700   [8]  21 00 00 00 00 00 00 00
  can0  700   [8]  22 00 00 00 00 00 00 00
  can0  700   [8]  23 00 00 00 00 00 00 00
  can0  700   [8]  24 00 00 00 00 00 00 00
  can0  700   [5]  25 00 00 00 00
  can0  700   [8]  10 27 26 00 00 00 00 00
  can0  701   [3]  30 00 00
  can0  700   [8]  21 00 00 00 00 00 00 00
  can0  700   [8]  22 00 00 00 00 00 00 00
  can0  700   [8]  23 00 00 00 00 00 00 00
  can0  700   [8]  24 00 00 00 00 00 00 00
  can0  700   [6]  25 00 00 00 00 00
  can0  700   [8]  10 28 27 00 00 00 00 00
  can0  701   [3]  30 00 00
  can0  700   [8]  21 00 00 00 00 00 00 00
  can0  700   [8]  22 00 00 00 00 00 00 00
  can0  700   [8]  23 00 00 00 00 00 00 00
  can0  700   [8]  24 00 00 00 00 00 00 00
  can0  700   [7]  25 00 00 00 00 00 00
  can0  700   [8]  10 29 28 00 00 00 00 00
  can0  701   [3]  30 00 00
  can0  700   [8]  21 00 00 00 00 00 00 00
  can0  700   [8]  22 00 00 00 00 00 00 00
  can0  700   [8]  23 00 00 00 00 00 00 00
  can0  700   [8]  24 00 00 00 00 00 00 00
  can0  700   [8]  25 00 00 00 00 00 00 00
  can0  700   [8]  10 2A 29 00 00 00 00 00
  can0  701   [3]  30 00 00
  can0  700   [8]  21 00 00 00 00 00 00 00
  can0  700   [8]  22 00 00 00 00 00 00 00
  can0  700   [8]  23 00 00 00 00 00 00 00
  can0  700   [8]  24 00 00 00 00 00 00 00
  can0  700   [8]  25 00 00 00 00 00 00 00
  can0  700   [2]  26 00
  can0  700   [8]  10 2B 2A 00 00 00 00 00
  can0  701   [3]  30 00 00
  can0  700   [8]  21 00 00 00 00 00 00 00
  can0  700   [8]  22 00 00 00 00 00 00 00
  can0  700   [8]  23 00 00 00 00 00 00 00
  can0  700   [8]  24 00 00 00 00 00 00 00
  can0  700   [8]  25 00 00 00 00 00 00 00
  can0  700   [3]  26 00 00
  can0  700   [8]  10 2C 2B 00 00 00 00 00
  can0  701   [3]  30 00 00
  can0  700   [8]  21 00 00 00 00 00 00 00
  can0  700   [8]  22 00 00 00 00 00 00 00
  can0  700   [8]  23 00 00 00 00 00 00 00
  can0  700   [8]  24 00 00 00 00 00 00 00
  can0  700   [8]  25 00 00 00 00 00 00 00
  can0  700   [4]  26 00 00 00
  can0  700   [8]  10 2D 2C 00 00 00 00 00
  can0  701   [3]  30 00 00
  can0  700   [8]  21 00 00 00 00 00 00 00
  can0  700   [8]  22 00 00 00 00 00 00 00
  can0  700   [8]  23 00 00 00 00 00 00 00
  can0  700   [8]  24 00 00 00 00 00 00 00
  can0  700   [8]  25 00 00 00 00 00 00 00
  can0  700   [5]  26 00 00 00 00
  can0  700   [8]  10 2E 2D 00 00 00 00 00
  can0  701   [3]  30 00 00
  can0  700   [8]  21 00 00 00 00 00 00 00
  can0  700   [8]  22 00 00 00 00 00 00 00
  can0  700   [8]  23 00 00 00 00 00 00 00
  can0  700   [8]  24 00 00 00 00 00 00 00
  can0  700   [8]  25 00 00 00 00 00 00 00
  can0  700   [6]  26 00 00 00 00 00
  can0  700   [8]  10 2F 2E 00 00 00 00 00
  can0  701   [3]  30 00 00
  can0  700   [8]  21 00 00 00 00 00 00 00
  can0  700   [8]  22 00 00 00 00 00 00 00
  can0  700   [8]  23 00 00 00 00 00 00 00
  can0  700   [8]  24 00 00 00 00 00 00 00
  can0  700   [8]  25 00 00 00 00 00 00 00
  can0  700   [7]  26 00 00 00 00 00 00
  can0  700   [8]  10 30 2F 00 00 00 00 00
  can0  701   [3]  30 00 00
  can0  700   [8]  21 00 00 00 00 00 00 00
  can0  700   [8]  22 00 00 00 00 00 00 00
  can0  700   [8]  23 00 00 00 00 00 00 00
  can0  700   [8]  24 00 00 00 00 00 00 00
  can0  700   [8]  25 00 00 00 00 00 00 00
  can0  700   [8]  26 00 00 00 00 00 00 00
  can0  700   [8]  10 31 30 00 00 00 00 00
  can0  701   [3]  30 00 00
  can0  700   [8]  21 00 00 00 00 00 00 00
  can0  700   [8]  22 00 00 00 00 00 00 00
  can0  700   [8]  23 00 00 00 00 00 00 00
  can0  700   [8]  24 00 00 00 00 00 00 00
  can0  700   [8]  25 00 00 00 00 00 00 00
  can0  700   [8]  26 00 00 00 00 00 00 00
  can0  700   [2]  27 00
  can0  700   [8]  10 32 31 00 00 00 00 00
  can0  701   [3]  30 00 00
  can0  700   [8]  21 00 00 00 00 00 00 00
  can0  700   [8]  22 00 00 00 00 00 00 00
  can0  700   [8]  23 00 00 00 00 00 00 00
  can0  700   [8]  24 00 00 00 00 00 00 00
  can0  700   [8]  25 00 00 00 00 00 00 00
  can0  700   [8]  26 00 00 00 00 00 00 00
  can0  700   [3]  27 00 00
  can0  700   [8]  10 33 32 00 00 00 00 00
  can0  701   [3]  30 00 00
  can0  700   [8]  21 00 00 00 00 00 00 00
  can0  700   [8]  22 00 00 00 00 00 00 00
  can0  700   [8]  23 00 00 00 00 00 00 00
  can0  700   [8]  24 00 00 00 00 00 00 00
  can0  700   [8]  25 00 00 00 00 00 00 00
  can0  700   [8]  26 00 00 00 00 00 00 00
  can0  700   [4]  27 00 00 00
  can0  700   [8]  10 34 33 00 00 00 00 00
  can0  701   [3]  30 00 00
  can0  700   [8]  21 00 00 00 00 00 00 00
  can0  700   [8]  22 00 00 00 00 00 00 00
  can0  700   [8]  23 00 00 00 00 00 00 00
  can0  700   [8]  24 00 00 00 00 00 00 00
  can0  700   [8]  25 00 00 00 00 00 00 00
  can0  700   [8]  26 00 00 00 00 00 00 00
  can0  700   [5]  27 00 00 00 00
  can0  700   [8]  10 35 34 00 00 00 00 00
  can0  701   [3]  30 00 00
  can0  700   [8]  21 00 00 00 00 00 00 00
  can0  700   [8]  22 00 00 00 00 00 00 00
  can0  700   [8]  23 00 00 00 00 00 00 00
  can0  700   [8]  24 00 00 00 00 00 00 00
  can0  700   [8]  25 00 00 00 00 00 00 00
  can0  700   [8]  26 00 00 00 00 00 00 00
  can0  700   [6]  27 00 00 00 00 00
  can0  700   [8]  10 36 35 00 00 00 00 00
  can0  701   [3]  30 00 00
  can0  700   [8]  21 00 00 00 00 00 00 00
  can0  700   [8]  22 00 00 00 00 00 00 00
  can0  700   [8]  23 00 00 00 00 00 00 00
  can0  700   [8]  24 00 00 00 00 00 00 00
  can0  700   [8]  25 00 00 00 00 00 00 00
  can0  700   [8]  26 00 00 00 00 00 00 00
  can0  700   [7]  27 00 00 00 00 00 00
  can0  700   [8]  10 37 36 00 00 00 00 00
  can0  701   [3]  30 00 00
  can0  700   [8]  21 00 00 00 00 00 00 00
  can0  700   [8]  22 00 00 00 00 00 00 00
  can0  700   [8]  23 00 00 00 00 00 00 00
  can0  700   [8]  24 00 00 00 00 00 00 00
  can0  700   [8]  25 00 00 00 00 00 00 00
  can0  700   [8]  26 00 00 00 00 00 00 00
  can0  700   [8]  27 00 00 00 00 00 00 00
  can0  700   [8]  10 38 37 00 00 00 00 00
  can0  701   [3]  30 00 00
  can0  700   [8]  21 00 00 00 00 00 00 00
  can0  700   [8]  22 00 00 00 00 00 00 00
  can0  700   [8]  23 00 00 00 00 00 00 00
  can0  700   [8]  24 00 00 00 00 00 00 00
  can0  700   [8]  25 00 00 00 00 00 00 00
  can0  700   [8]  26 00 00 00 00 00 00 00
  can0  700   [8]  27 00 00 00 00 00 00 00
  can0  700   [2]  28 00
  can0  700   [8]  10 39 38 00 00 00 00 00
  can0  701   [3]  30 00 00
  can0  700   [8]  21 00 00 00 00 00 00 00
  can0  700   [8]  22 00 00 00 00 00 00 00
  can0  700   [8]  23 00 00 00 00 00 00 00
  can0  700   [8]  24 00 00 00 00 00 00 00
  can0  700   [8]  25 00 00 00 00 00 00 00
  can0  700   [8]  26 00 00 00 00 00 00 00
  can0  700   [8]  27 00 00 00 00 00 00 00
  can0  700   [3]  28 00 00
  can0  700   [8]  10 3A 39 00 00 00 00 00
  can0  701   [3]  30 00 00
  can0  700   [8]  21 00 00 00 00 00 00 00
  can0  700   [8]  22 00 00 00 00 00 00 00
  can0  700   [8]  23 00 00 00 00 00 00 00
  can0  700   [8]  24 00 00 00 00 00 00 00
  can0  700   [8]  25 00 00 00 00 00 00 00
  can0  700   [8]  26 00 00 00 00 00 00 00
  can0  700   [8]  27 00 00 00 00 00 00 00
  can0  700   [4]  28 00 00 00
  can0  700   [8]  10 3B 3A 00 00 00 00 00
  can0  701   [3]  30 00 00
  can0  700   [8]  21 00 00 00 00 00 00 00
  can0  700   [8]  22 00 00 00 00 00 00 00
  can0  700   [8]  23 00 00 00 00 00 00 00
  can0  700   [8]  24 00 00 00 00 00 00 00
  can0  700   [8]  25 00 00 00 00 00 00 00
  can0  700   [8]  26 00 00 00 00 00 00 00
  can0  700   [8]  27 00 00 00 00 00 00 00
  can0  700   [5]  28 00 00 00 00
  can0  700   [8]  10 3C 3B 00 00 00 00 00
  can0  701   [3]  30 00 00
  can0  700   [8]  21 00 00 00 00 00 00 00
  can0  700   [8]  22 00 00 00 00 00 00 00
  can0  700   [8]  23 00 00 00 00 00 00 00
  can0  700   [8]  24 00 00 00 00 00 00 00
  can0  700   [8]  25 00 00 00 00 00 00 00
  can0  700   [8]  26 00 00 00 00 00 00 00
  can0  700   [8]  27 00 00 00 00 00 00 00
  can0  700   [6]  28 00 00 00 00 00
  can0  700   [8]  10 3D 3C 00 00 00 00 00
  can0  701   [3]  30 00 00
  can0  700   [8]  21 00 00 00 00 00 00 00
  can0  700   [8]  22 00 00 00 00 00 00 00
  can0  700   [8]  23 00 00 00 00 00 00 00
  can0  700   [8]  24 00 00 00 00 00 00 00
  can0  700   [8]  25 00 00 00 00 00 00 00
  can0  700   [8]  26 00 00 00 00 00 00 00
  can0  700   [8]  27 00 00 00 00 00 00 00
  can0  700   [7]  28 00 00 00 00 00 00
  can0  700   [8]  10 3E 3D 00 00 00 00 00
  can0  701   [3]  30 00 00
  can0  700   [8]  21 00 00 00 00 00 00 00
  can0  700   [8]  22 00 00 00 00 00 00 00
  can0  700   [8]  23 00 00 00 00 00 00 00
  can0  700   [8]  24 00 00 00 00 00 00 00
  can0  700   [8]  25 00 00 00 00 00 00 00
  can0  700   [8]  26 00 00 00 00 00 00 00
  can0  700   [8]  27 00 00 00 00 00 00 00
  can0  700   [8]  28 00 00 00 00 00 00 00
  can0  700   [8]  10 3F 3E 00 00 00 00 00
  can0  701   [3]  30 00 00
  can0  700   [8]  21 00 00 00 00 00 00 00
  can0  700   [8]  22 00 00 00 00 00 00 00
  can0  700   [8]  23 00 00 00 00 00 00 00
  can0  700   [8]  24 00 00 00 00 00 00 00
  can0  700   [8]  25 00 00 00 00 00 00 00
  can0  700   [8]  26 00 00 00 00 00 00 00
  can0  700   [8]  27 00 00 00 00 00 00 00
  can0  700   [8]  28 00 00 00 00 00 00 00
  can0  700   [2]  29 00
  can0  700   [8]  10 40 3F 00 00 00 00 00
  can0  701   [3]  30 00 00
  can0  700   [8]  21 00 00 00 00 00 00 00
  can0  700   [8]  22 00 00 00 00 00 00 00
  can0  700   [8]  23 00 00 00 00 00 00 00
  can0  700   [8]  24 00 00 00 00 00 00 00
  can0  700   [8]  25 00 00 00 00 00 00 00
  can0  700   [8]  26 00 00 00 00 00 00 00
  can0  700   [8]  27 00 00 00 00 00 00 00
  can0  700   [8]  28 00 00 00 00 00 00 00
  can0  700   [3]  29 00 00
  can0  700   [8]  10 41 40 00 00 00 00 00
  can0  701   [3]  30 00 00
  can0  700   [8]  21 00 00 00 00 00 00 00
  can0  700   [8]  22 00 00 00 00 00 00 00
  can0  700   [8]  23 00 00 00 00 00 00 00
  can0  700   [8]  24 00 00 00 00 00 00 00
  can0  700   [8]  25 00 00 00 00 00 00 00
  can0  700   [8]  26 00 00 00 00 00 00 00
  can0  700   [8]  27 00 00 00 00 00 00 00
  can0  700   [8]  28 00 00 00 00 00 00 00
  can0  700   [4]  29 00 00 00
  can0  700   [8]  10 42 41 00 00 00 00 00
  can0  701   [3]  30 00 00
  can0  700   [8]  21 00 00 00 00 00 00 00
  can0  700   [8]  22 00 00 00 00 00 00 00
  can0  700   [8]  23 00 00 00 00 00 00 00
  can0  700   [8]  24 00 00 00 00 00 00 00
  can0  700   [8]  25 00 00 00 00 00 00 00
  can0  700   [8]  26 00 00 00 00 00 00 00
  can0  700   [8]  27 00 00 00 00 00 00 00
  can0  700   [8]  28 00 00 00 00 00 00 00
  can0  700   [5]  29 00 00 00 00
  can0  700   [8]  10 43 42 00 00 00 00 00
  can0  701   [3]  30 00 00
  can0  700   [8]  21 00 00 00 00 00 00 00
  can0  700   [8]  22 00 00 00 00 00 00 00
  can0  700   [8]  23 00 00 00 00 00 00 00
  can0  700   [8]  24 00 00 00 00 00 00 00
  can0  700   [8]  25 00 00 00 00 00 00 00
  can0  700   [8]  26 00 00 00 00 00 00 00
  can0  700   [8]  27 00 00 00 00 00 00 00
  can0  700   [8]  28 00 00 00 00 00 00 00
  can0  700   [6]  29 00 00 00 00 00
  can0  700   [8]  10 44 43 00 00 00 00 00
  can0  701   [3]  30 00 00
  can0  700   [8]  21 00 00 00 00 00 00 00
  can0  700   [8]  22 00 00 00 00 00 00 00
  can0  700   [8]  23 00 00 00 00 00 00 00
  can0  700   [8]  24 00 00 00 00 00 00 00
  can0  700   [8]  25 00 00 00 00 00 00 00
  can0  700   [8]  26 00 00 00 00 00 00 00
  can0  700   [8]  27 00 00 00 00 00 00 00
  can0  700   [8]  28 00 00 00 00 00 00 00
  can0  700   [7]  29 00 00 00 00 00 00
  can0  700   [8]  10 45 44 00 00 00 00 00
  can0  701   [3]  30 00 00
  can0  700   [8]  21 00 00 00 00 00 00 00
  can0  700   [8]  22 00 00 00 00 00 00 00
  can0  700   [8]  23 00 00 00 00 00 00 00
  can0  700   [8]  24 00 00 00 00 00 00 00
  can0  700   [8]  25 00 00 00 00 00 00 00
  can0  700   [8]  26 00 00 00 00 00 00 00
  can0  700   [8]  27 00 00 00 00 00 00 00
  can0  700   [8]  28 00 00 00 00 00 00 00
  can0  700   [8]  29 00 00 00 00 00 00 00
  can0  700   [8]  10 46 45 00 00 00 00 00
  can0  701   [3]  30 00 00
  can0  700   [8]  21 00 00 00 00 00 00 00
  can0  700   [8]  22 00 00 00 00 00 00 00
  can0  700   [8]  23 00 00 00 00 00 00 00
  can0  700   [8]  24 00 00 00 00 00 00 00
  can0  700   [8]  25 00 00 00 00 00 00 00
  can0  700   [8]  26 00 00 00 00 00 00 00
  can0  700   [8]  27 00 00 00 00 00 00 00
  can0  700   [8]  28 00 00 00 00 00 00 00
  can0  700   [8]  29 00 00 00 00 00 00 00
  can0  700   [2]  2A 00
  can0  700   [8]  10 47 46 00 00 00 00 00
  can0  701   [3]  30 00 00
  can0  700   [8]  21 00 00 00 00 00 00 00
  can0  700   [8]  22 00 00 00 00 00 00 00
  can0  700   [8]  23 00 00 00 00 00 00 00
  can0  700   [8]  24 00 00 00 00 00 00 00
  can0  700   [8]  25 00 00 00 00 00 00 00
  can0  700   [8]  26 00 00 00 00 00 00 00
  can0  700   [8]  27 00 00 00 00 00 00 00
  can0  700   [8]  28 00 00 00 00 00 00 00
  can0  700   [8]  29 00 00 00 00 00 00 00
  can0  700   [3]  2A 00 00
  can0  700   [8]  10 48 47 00 00 00 00 00
  can0  701   [3]  30 00 00
  can0  700   [8]  21 00 00 00 00 00 00 00
  can0  700   [8]  22 00 00 00 00 00 00 00
  can0  700   [8]  23 00 00 00 00 00 00 00
  can0  700   [8]  24 00 00 00 00 00 00 00
  can0  700   [8]  25 00 00 00 00 00 00 00
  can0  700   [8]  26 00 00 00 00 00 00 00
  can0  700   [8]  27 00 00 00 00 00 00 00
  can0  700   [8]  28 00 00 00 00 00 00 00
  can0  700   [8]  29 00 00 00 00 00 00 00
  can0  700   [4]  2A 00 00 00
  can0  700   [8]  10 49 48 00 00 00 00 00
  can0  701   [3]  30 00 00
  can0  700   [8]  21 00 00 00 00 00 00 00
  can0  700   [8]  22 00 00 00 00 00 00 00
  can0  700   [8]  23 00 00 00 00 00 00 00
  can0  700   [8]  24 00 00 00 00 00 00 00
  can0  700   [8]  25 00 00 00 00 00 00 00
  can0  700   [8]  26 00 00 00 00 00 00 00
  can0  700   [8]  27 00 00 00 00 00 00 00
  can0  700   [8]  28 00 00 00 00 00 00 00
  can0  700   [8]  29 00 00 00 00 00 00 00
  can0  700   [5]  2A 00 00 00 00
  can0  700   [8]  10 4A 49 00 00 00 00 00
  can0  701   [3]  30 00 00
  can0  700   [8]  21 00 00 00 00 00 00 00
  can0  700   [8]  22 00 00 00 00 00 00 00
  can0  700   [8]  23 00 00 00 00 00 00 00
  can0  700   [8]  24 00 00 00 00 00 00 00
  can0  700   [8]  25 00 00 00 00 00 00 00
  can0  700   [8]  26 00 00 00 00 00 00 00
  can0  700   [8]  27 00 00 00 00 00 00 00
  can0  700   [8]  28 00 00 00 00 00 00 00
  can0  700   [8]  29 00 00 00 00 00 00 00
  can0  700   [6]  2A 00 00 00 00 00
  can0  700   [8]  10 4B 4A 00 00 00 00 00
  can0  701   [3]  30 00 00
  can0  700   [8]  21 00 00 00 00 00 00 00
  can0  700   [8]  22 00 00 00 00 00 00 00
  can0  700   [8]  23 00 00 00 00 00 00 00
  can0  700   [8]  24 00 00 00 00 00 00 00
  can0  700   [8]  25 00 00 00 00 00 00 00
  can0  700   [8]  26 00 00 00 00 00 00 00
  can0  700   [8]  27 00 00 00 00 00 00 00
  can0  700   [8]  28 00 00 00 00 00 00 00
  can0  700   [8]  29 00 00 00 00 00 00 00
  can0  700   [7]  2A 00 00 00 00 00 00
  can0  700   [8]  10 4C 4B 00 00 00 00 00
  can0  701   [3]  30 00 00
  can0  700   [8]  21 00 00 00 00 00 00 00
  can0  700   [8]  22 00 00 00 00 00 00 00
  can0  700   [8]  23 00 00 00 00 00 00 00
  can0  700   [8]  24 00 00 00 00 00 00 00
  can0  700   [8]  25 00 00 00 00 00 00 00
  can0  700   [8]  26 00 00 00 00 00 00 00
  can0  700   [8]  27 00 00 00 00 00 00 00
  can0  700   [8]  28 00 00 00 00 00 00 00
  can0  700   [8]  29 00 00 00 00 00 00 00
  can0  700   [8]  2A 00 00 00 00 00 00 00
  can0  700   [8]  10 4D 4C 00 00 00 00 00
  can0  701   [3]  30 00 00
  can0  700   [8]  21 00 00 00 00 00 00 00
  can0  700   [8]  22 00 00 00 00 00 00 00
  can0  700   [8]  23 00 00 00 00 00 00 00
  can0  700   [8]  24 00 00 00 00 00 00 00
  can0  700   [8]  25 00 00 00 00 00 00 00
  can0  700   [8]  26 00 00 00 00 00 00 00
  can0  700   [8]  27 00 00 00 00 00 00 00
  can0  700   [8]  28 00 00 00 00 00 00 00
  can0  700   [8]  29 00 00 00 00 00 00 00
  can0  700   [8]  2A 00 00 00 00 00 00 00
  can0  700   [2]  2B 00
  can0  700   [8]  10 4E 4D 00 00 00 00 00
  can0  701   [3]  30 00 00
  can0  700   [8]  21 00 00 00 00 00 00 00
  can0  700   [8]  22 00 00 00 00 00 00 00
  can0  700   [8]  23 00 00 00 00 00 00 00
  can0  700   [8]  24 00 00 00 00 00 00 00
  can0  700   [8]  25 00 00 00 00 00 00 00
  can0  700   [8]  26 00 00 00 00 00 00 00
  can0  700   [8]  27 00 00 00 00 00 00 00
  can0  700   [8]  28 00 00 00 00 00 00 00
  can0  700   [8]  29 00 00 00 00 00 00 00
  can0  700   [8]  2A 00 00 00 00 00 00 00
  can0  700   [3]  2B 00 00
  can0  700   [8]  10 4F 4E 00 00 00 00 00
  can0  701   [3]  30 00 00
  can0  700   [8]  21 00 00 00 00 00 00 00
  can0  700   [8]  22 00 00 00 00 00 00 00
  can0  700   [8]  23 00 00 00 00 00 00 00
  can0  700   [8]  24 00 00 00 00 00 00 00
  can0  700   [8]  25 00 00 00 00 00 00 00
  can0  700   [8]  26 00 00 00 00 00 00 00
  can0  700   [8]  27 00 00 00 00 00 00 00
  can0  700   [8]  28 00 00 00 00 00 00 00
  can0  700   [8]  29 00 00 00 00 00 00 00
  can0  700   [8]  2A 00 00 00 00 00 00 00
  can0  700   [4]  2B 00 00 00
  can0  700   [8]  10 50 4F 00 00 00 00 00
  can0  701   [3]  30 00 00
  can0  700   [8]  21 00 00 00 00 00 00 00
  can0  700   [8]  22 00 00 00 00 00 00 00
  can0  700   [8]  23 00 00 00 00 00 00 00
  can0  700   [8]  24 00 00 00 00 00 00 00
  can0  700   [8]  25 00 00 00 00 00 00 00
  can0  700   [8]  26 00 00 00 00 00 00 00
  can0  700   [8]  27 00 00 00 00 00 00 00
  can0  700   [8]  28 00 00 00 00 00 00 00
  can0  700   [8]  29 00 00 00 00 00 00 00
  can0  700   [8]  2A 00 00 00 00 00 00 00
  can0  700   [5]  2B 00 00 00 00
  can0  700   [8]  10 51 50 00 00 00 00 00
  can0  701   [3]  30 00 00
  can0  700   [8]  21 00 00 00 00 00 00 00
  can0  700   [8]  22 00 00 00 00 00 00 00
  can0  700   [8]  23 00 00 00 00 00 00 00
  can0  700   [8]  24 00 00 00 00 00 00 00
  can0  700   [8]  25 00 00 00 00 00 00 00
  can0  700   [8]  26 00 00 00 00 00 00 00
  can0  700   [8]  27 00 00 00 00 00 00 00
  can0  700   [8]  28 00 00 00 00 00 00 00
  can0  700   [8]  29 00 00 00 00 00 00 00
  can0  700   [8]  2A 00 00 00 00 00 00 00
  can0  700   [6]  2B 00 00 00 00 00
  can0  700   [8]  10 52 51 00 00 00 00 00
  can0  701   [3]  30 00 00
  can0  700   [8]  21 00 00 00 00 00 00 00
  can0  700   [8]  22 00 00 00 00 00 00 00
  can0  700   [8]  23 00 00 00 00 00 00 00
  can0  700   [8]  24 00 00 00 00 00 00 00
  can0  700   [8]  25 00 00 00 00 00 00 00
  can0  700   [8]  26 00 00 00 00 00 00 00
  can0  700   [8]  27 00 00 00 00 00 00 00
  can0  700   [8]  28 00 00 00 00 00 00 00
  can0  700   [8]  29 00 00 00 00 00 00 00
  can0  700   [8]  2A 00 00 00 00 00 00 00
  can0  700   [7]  2B 00 00 00 00 00 00
  can0  700   [8]  10 53 52 00 00 00 00 00
  can0  701   [3]  30 00 00
  can0  700   [8]  21 00 00 00 00 00 00 00
  can0  700   [8]  22 00 00 00 00 00 00 00
  can0  700   [8]  23 00 00 00 00 00 00 00
  can0  700   [8]  24 00 00 00 00 00 00 00
  can0  700   [8]  25 00 00 00 00 00 00 00
  can0  700   [8]  26 00 00 00 00 00 00 00
  can0  700   [8]  27 00 00 00 00 00 00 00
  can0  700   [8]  28 00 00 00 00 00 00 00
  can0  700   [8]  29 00 00 00 00 00 00 00
  can0  700   [8]  2A 00 00 00 00 00 00 00
  can0  700   [8]  2B 00 00 00 00 00 00 00
  can0  700   [8]  10 54 53 00 00 00 00 00
  can0  701   [3]  30 00 00
  can0  700   [8]  21 00 00 00 00 00 00 00
  can0  700   [8]  22 00 00 00 00 00 00 00
  can0  700   [8]  23 00 00 00 00 00 00 00
  can0  700   [8]  24 00 00 00 00 00 00 00
  can0  700   [8]  25 00 00 00 00 00 00 00
  can0  700   [8]  26 00 00 00 00 00 00 00
  can0  700   [8]  27 00 00 00 00 00 00 00
  can0  700   [8]  28 00 00 00 00 00 00 00
  can0  700   [8]  29 00 00 00 00 00 00 00
  can0  700   [8]  2A 00 00 00 00 00 00 00
  can0  700   [8]  2B 00 00 00 00 00 00 00
  can0  700   [2]  2C 00
  can0  700   [8]  10 55 54 00 00 00 00 00
  can0  701   [3]  30 00 00
  can0  700   [8]  21 00 00 00 00 00 00 00
  can0  700   [8]  22 00 00 00 00 00 00 00
  can0  700   [8]  23 00 00 00 00 00 00 00
  can0  700   [8]  24 00 00 00 00 00 00 00
  can0  700   [8]  25 00 00 00 00 00 00 00
  can0  700   [8]  26 00 00 00 00 00 00 00
  can0  700   [8]  27 00 00 00 00 00 00 00
  can0  700   [8]  28 00 00 00 00 00 00 00
  can0  700   [8]  29 00 00 00 00 00 00 00
  can0  700   [8]  2A 00 00 00 00 00 00 00
  can0  700   [8]  2B 00 00 00 00 00 00 00
  can0  700   [3]  2C 00 00
  can0  700   [8]  10 56 55 00 00 00 00 00
  can0  701   [3]  30 00 00
  can0  700   [8]  21 00 00 00 00 00 00 00
  can0  700   [8]  22 00 00 00 00 00 00 00
  can0  700   [8]  23 00 00 00 00 00 00 00
  can0  700   [8]  24 00 00 00 00 00 00 00
  can0  700   [8]  25 00 00 00 00 00 00 00
  can0  700   [8]  26 00 00 00 00 00 00 00
  can0  700   [8]  27 00 00 00 00 00 00 00
  can0  700   [8]  28 00 00 00 00 00 00 00
  can0  700   [8]  29 00 00 00 00 00 00 00
  can0  700   [8]  2A 00 00 00 00 00 00 00
  can0  700   [8]  2B 00 00 00 00 00 00 00
  can0  700   [4]  2C 00 00 00
  can0  700   [8]  10 57 56 00 00 00 00 00
  can0  701   [3]  30 00 00
  can0  700   [8]  21 00 00 00 00 00 00 00
  can0  700   [8]  22 00 00 00 00 00 00 00
  can0  700   [8]  23 00 00 00 00 00 00 00
  can0  700   [8]  24 00 00 00 00 00 00 00
  can0  700   [8]  25 00 00 00 00 00 00 00
  can0  700   [8]  26 00 00 00 00 00 00 00
  can0  700   [8]  27 00 00 00 00 00 00 00
  can0  700   [8]  28 00 00 00 00 00 00 00
  can0  700   [8]  29 00 00 00 00 00 00 00
  can0  700   [8]  2A 00 00 00 00 00 00 00
  can0  700   [8]  2B 00 00 00 00 00 00 00
  can0  700   [5]  2C 00 00 00 00
  can0  700   [8]  10 58 57 00 00 00 00 00
  can0  701   [3]  30 00 00
  can0  700   [8]  21 00 00 00 00 00 00 00
  can0  700   [8]  22 00 00 00 00 00 00 00
  can0  700   [8]  23 00 00 00 00 00 00 00
  can0  700   [8]  24 00 00 00 00 00 00 00
  can0  700   [8]  25 00 00 00 00 00 00 00
  can0  700   [8]  26 00 00 00 00 00 00 00
  can0  700   [8]  27 00 00 00 00 00 00 00
  can0  700   [8]  28 00 00 00 00 00 00 00
  can0  700   [8]  29 00 00 00 00 00 00 00
  can0  700   [8]  2A 00 00 00 00 00 00 00
  can0  700   [8]  2B 00 00 00 00 00 00 00
  can0  700   [6]  2C 00 00 00 00 00
  can0  700   [8]  10 59 58 00 00 00 00 00
  can0  701   [3]  30 00 00
  can0  700   [8]  21 00 00 00 00 00 00 00
  can0  700   [8]  22 00 00 00 00 00 00 00
  can0  700   [8]  23 00 00 00 00 00 00 00
  can0  700   [8]  24 00 00 00 00 00 00 00
  can0  700   [8]  25 00 00 00 00 00 00 00
  can0  700   [8]  26 00 00 00 00 00 00 00
  can0  700   [8]  27 00 00 00 00 00 00 00
  can0  700   [8]  28 00 00 00 00 00 00 00
  can0  700   [8]  29 00 00 00 00 00 00 00
  can0  700   [8]  2A 00 00 00 00 00 00 00
  can0  700   [8]  2B 00 00 00 00 00 00 00
  can0  700   [7]  2C 00 00 00 00 00 00
  can0  700   [8]  10 5A 59 00 00 00 00 00
  can0  701   [3]  30 00 00
  can0  700   [8]  21 00 00 00 00 00 00 00
  can0  700   [8]  22 00 00 00 00 00 00 00
  can0  700   [8]  23 00 00 00 00 00 00 00
  can0  700   [8]  24 00 00 00 00 00 00 00
  can0  700   [8]  25 00 00 00 00 00 00 00
  can0  700   [8]  26 00 00 00 00 00 00 00
  can0  700   [8]  27 00 00 00 00 00 00 00
  can0  700   [8]  28 00 00 00 00 00 00 00
  can0  700   [8]  29 00 00 00 00 00 00 00
  can0  700   [8]  2A 00 00 00 00 00 00 00
  can0  700   [8]  2B 00 00 00 00 00 00 00
  can0  700   [8]  2C 00 00 00 00 00 00 00
  can0  700   [8]  10 5B 5A 00 00 00 00 00
  can0  701   [3]  30 00 00
  can0  700   [8]  21 00 00 00 00 00 00 00
  can0  700   [8]  22 00 00 00 00 00 00 00
  can0  700   [8]  23 00 00 00 00 00 00 00
  can0  700   [8]  24 00 00 00 00 00 00 00
  can0  700   [8]  25 00 00 00 00 00 00 00
  can0  700   [8]  26 00 00 00 00 00 00 00
  can0  700   [8]  27 00 00 00 00 00 00 00
  can0  700   [8]  28 00 00 00 00 00 00 00
  can0  700   [8]  29 00 00 00 00 00 00 00
  can0  700   [8]  2A 00 00 00 00 00 00 00
  can0  700   [8]  2B 00 00 00 00 00 00 00
  can0  700   [8]  2C 00 00 00 00 00 00 00
  can0  700   [2]  2D 00
  can0  700   [8]  10 5C 5B 00 00 00 00 00
  can0  701   [3]  30 00 00
  can0  700   [8]  21 00 00 00 00 00 00 00
  can0  700   [8]  22 00 00 00 00 00 00 00
  can0  700   [8]  23 00 00 00 00 00 00 00
  can0  700   [8]  24 00 00 00 00 00 00 00
  can0  700   [8]  25 00 00 00 00 00 00 00
  can0  700   [8]  26 00 00 00 00 00 00 00
  can0  700   [8]  27 00 00 00 00 00 00 00
  can0  700   [8]  28 00 00 00 00 00 00 00
  can0  700   [8]  29 00 00 00 00 00 00 00
  can0  700   [8]  2A 00 00 00 00 00 00 00
  can0  700   [8]  2B 00 00 00 00 00 00 00
  can0  700   [8]  2C 00 00 00 00 00 00 00
  can0  700   [3]  2D 00 00
  can0  700   [8]  10 5D 5C 00 00 00 00 00
  can0  701   [3]  30 00 00
  can0  700   [8]  21 00 00 00 00 00 00 00
  can0  700   [8]  22 00 00 00 00 00 00 00
  can0  700   [8]  23 00 00 00 00 00 00 00
  can0  700   [8]  24 00 00 00 00 00 00 00
  can0  700   [8]  25 00 00 00 00 00 00 00
  can0  700   [8]  26 00 00 00 00 00 00 00
  can0  700   [8]  27 00 00 00 00 00 00 00
  can0  700   [8]  28 00 00 00 00 00 00 00
  can0  700   [8]  29 00 00 00 00 00 00 00
  can0  700   [8]  2A 00 00 00 00 00 00 00
  can0  700   [8]  2B 00 00 00 00 00 00 00
  can0  700   [8]  2C 00 00 00 00 00 00 00
  can0  700   [4]  2D 00 00 00
  can0  700   [8]  10 5E 5D 00 00 00 00 00
  can0  701   [3]  30 00 00
  can0  700   [8]  21 00 00 00 00 00 00 00
  can0  700   [8]  22 00 00 00 00 00 00 00
  can0  700   [8]  23 00 00 00 00 00 00 00
  can0  700   [8]  24 00 00 00 00 00 00 00
  can0  700   [8]  25 00 00 00 00 00 00 00
  can0  700   [8]  26 00 00 00 00 00 00 00
  can0  700   [8]  27 00 00 00 00 00 00 00
  can0  700   [8]  28 00 00 00 00 00 00 00
  can0  700   [8]  29 00 00 00 00 00 00 00
  can0  700   [8]  2A 00 00 00 00 00 00 00
  can0  700   [8]  2B 00 00 00 00 00 00 00
  can0  700   [8]  2C 00 00 00 00 00 00 00
  can0  700   [5]  2D 00 00 00 00
  can0  700   [8]  10 5F 5E 00 00 00 00 00
  can0  701   [3]  30 00 00
  can0  700   [8]  21 00 00 00 00 00 00 00
  can0  700   [8]  22 00 00 00 00 00 00 00
  can0  700   [8]  23 00 00 00 00 00 00 00
  can0  700   [8]  24 00 00 00 00 00 00 00
  can0  700   [8]  25 00 00 00 00 00 00 00
  can0  700   [8]  26 00 00 00 00 00 00 00
  can0  700   [8]  27 00 00 00 00 00 00 00
  can0  700   [8]  28 00 00 00 00 00 00 00
  can0  700   [8]  29 00 00 00 00 00 00 00
  can0  700   [8]  2A 00 00 00 00 00 00 00
  can0  700   [8]  2B 00 00 00 00 00 00 00
  can0  700   [8]  2C 00 00 00 00 00 00 00
  can0  700   [6]  2D 00 00 00 00 00
  can0  700   [8]  10 60 5F 00 00 00 00 00
  can0  701   [3]  30 00 00
  can0  700   [8]  21 00 00 00 00 00 00 00
  can0  700   [8]  22 00 00 00 00 00 00 00
  can0  700   [8]  23 00 00 00 00 00 00 00
  can0  700   [8]  24 00 00 00 00 00 00 00
  can0  700   [8]  25 00 00 00 00 00 00 00
  can0  700   [8]  26 00 00 00 00 00 00 00
  can0  700   [8]  27 00 00 00 00 00 00 00
  can0  700   [8]  28 00 00 00 00 00 00 00
  can0  700   [8]  29 00 00 00 00 00 00 00
  can0  700   [8]  2A 00 00 00 00 00 00 00
  can0  700   [8]  2B 00 00 00 00 00 00 00
  can0  700   [8]  2C 00 00 00 00 00 00 00
  can0  700   [7]  2D 00 00 00 00 00 00
  can0  700   [8]  10 61 60 00 00 00 00 00
  can0  701   [3]  30 00 00
  can0  700   [8]  21 00 00 00 00 00 00 00
  can0  700   [8]  22 00 00 00 00 00 00 00
  can0  700   [8]  23 00 00 00 00 00 00 00
  can0  700   [8]  24 00 00 00 00 00 00 00
  can0  700   [8]  25 00 00 00 00 00 00 00
  can0  700   [8]  26 00 00 00 00 00 00 00
  can0  700   [8]  27 00 00 00 00 00 00 00
  can0  700   [8]  28 00 00 00 00 00 00 00
  can0  700   [8]  29 00 00 00 00 00 00 00
  can0  700   [8]  2A 00 00 00 00 00 00 00
  can0  700   [8]  2B 00 00 00 00 00 00 00
  can0  700   [8]  2C 00 00 00 00 00 00 00
  can0  700   [8]  2D 00 00 00 00 00 00 00
  can0  700   [8]  10 62 61 00 00 00 00 00
  can0  701   [3]  30 00 00
  can0  700   [8]  21 00 00 00 00 00 00 00
  can0  700   [8]  22 00 00 00 00 00 00 00
  can0  700   [8]  23 00 00 00 00 00 00 00
  can0  700   [8]  24 00 00 00 00 00 00 00
  can0  700   [8]  25 00 00 00 00 00 00 00
  can0  700   [8]  26 00 00 00 00 00 00 00
  can0  700   [8]  27 00 00 00 00 00 00 00
  can0  700   [8]  28 00 00 00 00 00 00 00
  can0  700   [8]  29 00 00 00 00 00 00 00
  can0  700   [8]  2A 00 00 00 00 00 00 00
  can0  700   [8]  2B 00 00 00 00 00 00 00
  can0  700   [8]  2C 00 00 00 00 00 00 00
  can0  700   [8]  2D 00 00 00 00 00 00 00
  can0  700   [2]  2E 00
  can0  700   [8]  10 63 62 00 00 00 00 00
  can0  701   [3]  30 00 00
  can0  700   [8]  21 00 00 00 00 00 00 00
  can0  700   [8]  22 00 00 00 00 00 00 00
  can0  700   [8]  23 00 00 00 00 00 00 00
  can0  700   [8]  24 00 00 00 00 00 00 00
  can0  700   [8]  25 00 00 00 00 00 00 00
  can0  700   [8]  26 00 00 00 00 00 00 00
  can0  700   [8]  27 00 00 00 00 00 00 00
  can0  700   [8]  28 00 00 00 00 00 00 00
  can0  700   [8]  29 00 00 00 00 00 00 00
  can0  700   [8]  2A 00 00 00 00 00 00 00
  can0  700   [8]  2B 00 00 00 00 00 00 00
  can0  700   [8]  2C 00 00 00 00 00 00 00
  can0  700   [8]  2D 00 00 00 00 00 00 00
  can0  700   [3]  2E 00 00
  can0  700   [8]  10 64 63 00 00 00 00 00
  can0  701   [3]  30 00 00
  can0  700   [8]  21 00 00 00 00 00 00 00
  can0  700   [8]  22 00 00 00 00 00 00 00
  can0  700   [8]  23 00 00 00 00 00 00 00
  can0  700   [8]  24 00 00 00 00 00 00 00
  can0  700   [8]  25 00 00 00 00 00 00 00
  can0  700   [8]  26 00 00 00 00 00 00 00
  can0  700   [8]  27 00 00 00 00 00 00 00
  can0  700   [8]  28 00 00 00 00 00 00 00
  can0  700   [8]  29 00 00 00 00 00 00 00
  can0  700   [8]  2A 00 00 00 00 00 00 00
  can0  700   [8]  2B 00 00 00 00 00 00 00
  can0  700   [8]  2C 00 00 00 00 00 00 00
  can0  700   [8]  2D 00 00 00 00 00 00 00
  can0  700   [4]  2E 00 00 00
  can0  700   [8]  10 65 64 00 00 00 00 00
  can0  701   [3]  30 00 00
  can0  700   [8]  21 00 00 00 00 00 00 00
  can0  700   [8]  22 00 00 00 00 00 00 00
  can0  700   [8]  23 00 00 00 00 00 00 00
  can0  700   [8]  24 00 00 00 00 00 00 00
  can0  700   [8]  25 00 00 00 00 00 00 00
  can0  700   [8]  26 00 00 00 00 00 00 00
  can0  700   [8]  27 00 00 00 00 00 00 00
  can0  700   [8]  28 00 00 00 00 00 00 00
  can0  700   [8]  29 00 00 00 00 00 00 00
  can0  700   [8]  2A 00 00 00 00 00 00 00
  can0  700   [8]  2B 00 00 00 00 00 00 00
  can0  700   [8]  2C 00 00 00 00 00 00 00
  can0  700   [8]  2D 00 00 00 00 00 00 00
  can0  700   [5]  2E 00 00 00 00
  can0  700   [8]  10 66 65 00 00 00 00 00
  can0  701   [3]  30 00 00
  can0  700   [8]  21 00 00 00 00 00 00 00
  can0  700   [8]  22 00 00 00 00 00 00 00
  can0  700   [8]  23 00 00 00 00 00 00 00
  can0  700   [8]  24 00 00 00 00 00 00 00
  can0  700   [8]  25 00 00 00 00 00 00 00
  can0  700   [8]  26 00 00 00 00 00 00 00
  can0  700   [8]  27 00 00 00 00 00 00 00
  can0  700   [8]  28 00 00 00 00 00 00 00
  can0  700   [8]  29 00 00 00 00 00 00 00
  can0  700   [8]  2A 00 00 00 00 00 00 00
  can0  700   [8]  2B 00 00 00 00 00 00 00
  can0  700   [8]  2C 00 00 00 00 00 00 00
  can0  700   [8]  2D 00 00 00 00 00 00 00
  can0  700   [6]  2E 00 00 00 00 00
  can0  700   [8]  10 67 66 00 00 00 00 00
  can0  701   [3]  30 00 00
  can0  700   [8]  21 00 00 00 00 00 00 00
  can0  700   [8]  22 00 00 00 00 00 00 00
  can0  700   [8]  23 00 00 00 00 00 00 00
  can0  700   [8]  24 00 00 00 00 00 00 00
  can0  700   [8]  25 00 00 00 00 00 00 00
  can0  700   [8]  26 00 00 00 00 00 00 00
  can0  700   [8]  27 00 00 00 00 00 00 00
  can0  700   [8]  28 00 00 00 00 00 00 00
  can0  700   [8]  29 00 00 00 00 00 00 00
  can0  700   [8]  2A 00 00 00 00 00 00 00
  can0  700   [8]  2B 00 00 00 00 00 00 00
  can0  700   [8]  2C 00 00 00 00 00 00 00
  can0  700   [8]  2D 00 00 00 00 00 00 00
  can0  700   [7]  2E 00 00 00 00 00 00
  can0  700   [8]  10 68 67 00 00 00 00 00
  can0  701   [3]  30 00 00
  can0  700   [8]  21 00 00 00 00 00 00 00
  can0  700   [8]  22 00 00 00 00 00 00 00
  can0  700   [8]  23 00 00 00 00 00 00 00
  can0  700   [8]  24 00 00 00 00 00 00 00
  can0  700   [8]  25 00 00 00 00 00 00 00
  can0  700   [8]  26 00 00 00 00 00 00 00
  can0  700   [8]  27 00 00 00 00 00 00 00
  can0  700   [8]  28 00 00 00 00 00 00 00
  can0  700   [8]  29 00 00 00 00 00 00 00
  can0  700   [8]  2A 00 00 00 00 00 00 00
  can0  700   [8]  2B 00 00 00 00 00 00 00
  can0  700   [8]  2C 00 00 00 00 00 00 00
  can0  700   [8]  2D 00 00 00 00 00 00 00
  can0  700   [8]  2E 00 00 00 00 00 00 00
  can0  700   [8]  10 69 68 00 00 00 00 00
  can0  701   [3]  30 00 00
  can0  700   [8]  21 00 00 00 00 00 00 00
  can0  700   [8]  22 00 00 00 00 00 00 00
  can0  700   [8]  23 00 00 00 00 00 00 00
  can0  700   [8]  24 00 00 00 00 00 00 00
  can0  700   [8]  25 00 00 00 00 00 00 00
  can0  700   [8]  26 00 00 00 00 00 00 00
  can0  700   [8]  27 00 00 00 00 00 00 00
  can0  700   [8]  28 00 00 00 00 00 00 00
  can0  700   [8]  29 00 00 00 00 00 00 00
  can0  700   [8]  2A 00 00 00 00 00 00 00
  can0  700   [8]  2B 00 00 00 00 00 00 00
  can0  700   [8]  2C 00 00 00 00 00 00 00
  can0  700   [8]  2D 00 00 00 00 00 00 00
  can0  700   [8]  2E 00 00 00 00 00 00 00
  can0  700   [2]  2F 00
  can0  700   [8]  10 6A 69 00 00 00 00 00
  can0  701   [3]  30 00 00
  can0  700   [8]  21 00 00 00 00 00 00 00
  can0  700   [8]  22 00 00 00 00 00 00 00
  can0  700   [8]  23 00 00 00 00 00 00 00
  can0  700   [8]  24 00 00 00 00 00 00 00
  can0  700   [8]  25 00 00 00 00 00 00 00
  can0  700   [8]  26 00 00 00 00 00 00 00
  can0  700   [8]  27 00 00 00 00 00 00 00
  can0  700   [8]  28 00 00 00 00 00 00 00
  can0  700   [8]  29 00 00 00 00 00 00 00
  can0  700   [8]  2A 00 00 00 00 00 00 00
  can0  700   [8]  2B 00 00 00 00 00 00 00
  can0  700   [8]  2C 00 00 00 00 00 00 00
  can0  700   [8]  2D 00 00 00 00 00 00 00
  can0  700   [8]  2E 00 00 00 00 00 00 00
  can0  700   [3]  2F 00 00
  can0  700   [8]  10 6B 6A 00 00 00 00 00
  can0  701   [3]  30 00 00
  can0  700   [8]  21 00 00 00 00 00 00 00
  can0  700   [8]  22 00 00 00 00 00 00 00
  can0  700   [8]  23 00 00 00 00 00 00 00
  can0  700   [8]  24 00 00 00 00 00 00 00
  can0  700   [8]  25 00 00 00 00 00 00 00
  can0  700   [8]  26 00 00 00 00 00 00 00
  can0  700   [8]  27 00 00 00 00 00 00 00
  can0  700   [8]  28 00 00 00 00 00 00 00
  can0  700   [8]  29 00 00 00 00 00 00 00
  can0  700   [8]  2A 00 00 00 00 00 00 00
  can0  700   [8]  2B 00 00 00 00 00 00 00
  can0  700   [8]  2C 00 00 00 00 00 00 00
  can0  700   [8]  2D 00 00 00 00 00 00 00
  can0  700   [8]  2E 00 00 00 00 00 00 00
  can0  700   [4]  2F 00 00 00
  can0  700   [8]  10 6C 6B 00 00 00 00 00
  can0  701   [3]  30 00 00
  can0  700   [8]  21 00 00 00 00 00 00 00
  can0  700   [8]  22 00 00 00 00 00 00 00
  can0  700   [8]  23 00 00 00 00 00 00 00
  can0  700   [8]  24 00 00 00 00 00 00 00
  can0  700   [8]  25 00 00 00 00 00 00 00
  can0  700   [8]  26 00 00 00 00 00 00 00
  can0  700   [8]  27 00 00 00 00 00 00 00
  can0  700   [8]  28 00 00 00 00 00 00 00
  can0  700   [8]  29 00 00 00 00 00 00 00
  can0  700   [8]  2A 00 00 00 00 00 00 00
  can0  700   [8]  2B 00 00 00 00 00 00 00
  can0  700   [8]  2C 00 00 00 00 00 00 00
  can0  700   [8]  2D 00 00 00 00 00 00 00
  can0  700   [8]  2E 00 00 00 00 00 00 00
  can0  700   [5]  2F 00 00 00 00
  can0  700   [8]  10 6D 6C 00 00 00 00 00
  can0  701   [3]  30 00 00
  can0  700   [8]  21 00 00 00 00 00 00 00
  can0  700   [8]  22 00 00 00 00 00 00 00
  can0  700   [8]  23 00 00 00 00 00 00 00
  can0  700   [8]  24 00 00 00 00 00 00 00
  can0  700   [8]  25 00 00 00 00 00 00 00
  can0  700   [8]  26 00 00 00 00 00 00 00
  can0  700   [8]  27 00 00 00 00 00 00 00
  can0  700   [8]  28 00 00 00 00 00 00 00
  can0  700   [8]  29 00 00 00 00 00 00 00
  can0  700   [8]  2A 00 00 00 00 00 00 00
  can0  700   [8]  2B 00 00 00 00 00 00 00
  can0  700   [8]  2C 00 00 00 00 00 00 00
  can0  700   [8]  2D 00 00 00 00 00 00 00
  can0  700   [8]  2E 00 00 00 00 00 00 00
  can0  700   [6]  2F 00 00 00 00 00
  can0  700   [8]  10 6E 6D 00 00 00 00 00
  can0  701   [3]  30 00 00
  can0  700   [8]  21 00 00 00 00 00 00 00
  can0  700   [8]  22 00 00 00 00 00 00 00
  can0  700   [8]  23 00 00 00 00 00 00 00
  can0  700   [8]  24 00 00 00 00 00 00 00
  can0  700   [8]  25 00 00 00 00 00 00 00
  can0  700   [8]  26 00 00 00 00 00 00 00
  can0  700   [8]  27 00 00 00 00 00 00 00
  can0  700   [8]  28 00 00 00 00 00 00 00
  can0  700   [8]  29 00 00 00 00 00 00 00
  can0  700   [8]  2A 00 00 00 00 00 00 00
  can0  700   [8]  2B 00 00 00 00 00 00 00
  can0  700   [8]  2C 00 00 00 00 00 00 00
  can0  700   [8]  2D 00 00 00 00 00 00 00
  can0  700   [8]  2E 00 00 00 00 00 00 00
  can0  700   [7]  2F 00 00 00 00 00 00
  can0  700   [8]  10 6F 6E 00 00 00 00 00
  can0  701   [3]  30 00 00
  can0  700   [8]  21 00 00 00 00 00 00 00
  can0  700   [8]  22 00 00 00 00 00 00 00
  can0  700   [8]  23 00 00 00 00 00 00 00
  can0  700   [8]  24 00 00 00 00 00 00 00
  can0  700   [8]  25 00 00 00 00 00 00 00
  can0  700   [8]  26 00 00 00 00 00 00 00
  can0  700   [8]  27 00 00 00 00 00 00 00
  can0  700   [8]  28 00 00 00 00 00 00 00
  can0  700   [8]  29 00 00 00 00 00 00 00
  can0  700   [8]  2A 00 00 00 00 00 00 00
  can0  700   [8]  2B 00 00 00 00 00 00 00
  can0  700   [8]  2C 00 00 00 00 00 00 00
  can0  700   [8]  2D 00 00 00 00 00 00 00
  can0  700   [8]  2E 00 00 00 00 00 00 00
  can0  700   [8]  2F 00 00 00 00 00 00 00
  can0  700   [8]  10 70 6F 00 00 00 00 00
  can0  701   [3]  30 00 00
  can0  700   [8]  21 00 00 00 00 00 00 00
  can0  700   [8]  22 00 00 00 00 00 00 00
  can0  700   [8]  23 00 00 00 00 00 00 00
  can0  700   [8]  24 00 00 00 00 00 00 00
  can0  700   [8]  25 00 00 00 00 00 00 00
  can0  700   [8]  26 00 00 00 00 00 00 00
  can0  700   [8]  27 00 00 00 00 00 00 00
  can0  700   [8]  28 00 00 00 00 00 00 00
  can0  700   [8]  29 00 00 00 00 00 00 00
  can0  700   [8]  2A 00 00 00 00 00 00 00
  can0  700   [8]  2B 00 00 00 00 00 00 00
  can0  700   [8]  2C 00 00 00 00 00 00 00
  can0  700   [8]  2D 00 00 00 00 00 00 00
  can0  700   [8]  2E 00 00 00 00 00 00 00
  can0  700   [8]  2F 00 00 00 00 00 00 00
  can0  700   [2]  20 00
  can0  700   [8]  10 71 70 00 00 00 00 00
  can0  701   [3]  30 00 00
  can0  700   [8]  21 00 00 00 00 00 00 00
  can0  700   [8]  22 00 00 00 00 00 00 00
  can0  700   [8]  23 00 00 00 00 00 00 00
  can0  700   [8]  24 00 00 00 00 00 00 00
  can0  700   [8]  25 00 00 00 00 00 00 00
  can0  700   [8]  26 00 00 00 00 00 00 00
  can0  700   [8]  27 00 00 00 00 00 00 00
  can0  700   [8]  28 00 00 00 00 00 00 00
  can0  700   [8]  29 00 00 00 00 00 00 00
  can0  700   [8]  2A 00 00 00 00 00 00 00
  can0  700   [8]  2B 00 00 00 00 00 00 00
  can0  700   [8]  2C 00 00 00 00 00 00 00
  can0  700   [8]  2D 00 00 00 00 00 00 00
  can0  700   [8]  2E 00 00 00 00 00 00 00
  can0  700   [8]  2F 00 00 00 00 00 00 00
  can0  700   [3]  20 00 00
  can0  700   [8]  10 72 71 00 00 00 00 00
  can0  701   [3]  30 00 00
  can0  700   [8]  21 00 00 00 00 00 00 00
  can0  700   [8]  22 00 00 00 00 00 00 00
  can0  700   [8]  23 00 00 00 00 00 00 00
  can0  700   [8]  24 00 00 00 00 00 00 00
  can0  700   [8]  25 00 00 00 00 00 00 00
  can0  700   [8]  26 00 00 00 00 00 00 00
  can0  700   [8]  27 00 00 00 00 00 00 00
  can0  700   [8]  28 00 00 00 00 00 00 00
  can0  700   [8]  29 00 00 00 00 00 00 00
  can0  700   [8]  2A 00 00 00 00 00 00 00
  can0  700   [8]  2B 00 00 00 00 00 00 00
  can0  700   [8]  2C 00 00 00 00 00 00 00
  can0  700   [8]  2D 00 00 00 00 00 00 00
  can0  700   [8]  2E 00 00 00 00 00 00 00
  can0  700   [8]  2F 00 00 00 00 00 00 00
  can0  700   [4]  20 00 00 00
  can0  700   [8]  10 73 72 00 00 00 00 00
  can0  701   [3]  30 00 00
  can0  700   [8]  21 00 00 00 00 00 00 00
  can0  700   [8]  22 00 00 00 00 00 00 00
  can0  700   [8]  23 00 00 00 00 00 00 00
  can0  700   [8]  24 00 00 00 00 00 00 00
  can0  700   [8]  25 00 00 00 00 00 00 00
  can0  700   [8]  26 00 00 00 00 00 00 00
  can0  700   [8]  27 00 00 00 00 00 00 00
  can0  700   [8]  28 00 00 00 00 00 00 00
  can0  700   [8]  29 00 00 00 00 00 00 00
  can0  700   [8]  2A 00 00 00 00 00 00 00
  can0  700   [8]  2B 00 00 00 00 00 00 00
  can0  700   [8]  2C 00 00 00 00 00 00 00
  can0  700   [8]  2D 00 00 00 00 00 00 00
  can0  700   [8]  2E 00 00 00 00 00 00 00
  can0  700   [8]  2F 00 00 00 00 00 00 00
  can0  700   [5]  20 00 00 00 00
  can0  700   [8]  10 74 73 00 00 00 00 00
  can0  701   [3]  30 00 00
  can0  700   [8]  21 00 00 00 00 00 00 00
  can0  700   [8]  22 00 00 00 00 00 00 00
  can0  700   [8]  23 00 00 00 00 00 00 00
  can0  700   [8]  24 00 00 00 00 00 00 00
  can0  700   [8]  25 00 00 00 00 00 00 00
  can0  700   [8]  26 00 00 00 00 00 00 00
  can0  700   [8]  27 00 00 00 00 00 00 00
  can0  700   [8]  28 00 00 00 00 00 00 00
  can0  700   [8]  29 00 00 00 00 00 00 00
  can0  700   [8]  2A 00 00 00 00 00 00 00
  can0  700   [8]  2B 00 00 00 00 00 00 00
  can0  700   [8]  2C 00 00 00 00 00 00 00
  can0  700   [8]  2D 00 00 00 00 00 00 00
  can0  700   [8]  2E 00 00 00 00 00 00 00
  can0  700   [8]  2F 00 00 00 00 00 00 00
  can0  700   [6]  20 00 00 00 00 00
  can0  700   [8]  10 75 74 00 00 00 00 00
  can0  701   [3]  30 00 00
  can0  700   [8]  21 00 00 00 00 00 00 00
  can0  700   [8]  22 00 00 00 00 00 00 00
  can0  700   [8]  23 00 00 00 00 00 00 00
  can0  700   [8]  24 00 00 00 00 00 00 00
  can0  700   [8]  25 00 00 00 00 00 00 00
  can0  700   [8]  26 00 00 00 00 00 00 00
  can0  700   [8]  27 00 00 00 00 00 00 00
  can0  700   [8]  28 00 00 00 00 00 00 00
  can0  700   [8]  29 00 00 00 00 00 00 00
  can0  700   [8]  2A 00 00 00 00 00 00 00
  can0  700   [8]  2B 00 00 00 00 00 00 00
  can0  700   [8]  2C 00 00 00 00 00 00 00
  can0  700   [8]  2D 00 00 00 00 00 00 00
  can0  700   [8]  2E 00 00 00 00 00 00 00
  can0  700   [8]  2F 00 00 00 00 00 00 00
  can0  700   [7]  20 00 00 00 00 00 00
  can0  700   [8]  10 76 75 00 00 00 00 00
  can0  701   [3]  30 00 00
  can0  700   [8]  21 00 00 00 00 00 00 00
  can0  700   [8]  22 00 00 00 00 00 00 00
  can0  700   [8]  23 00 00 00 00 00 00 00
  can0  700   [8]  24 00 00 00 00 00 00 00
  can0  700   [8]  25 00 00 00 00 00 00 00
  can0  700   [8]  26 00 00 00 00 00 00 00
  can0  700   [8]  27 00 00 00 00 00 00 00
  can0  700   [8]  28 00 00 00 00 00 00 00
  can0  700   [8]  29 00 00 00 00 00 00 00
  can0  700   [8]  2A 00 00 00 00 00 00 00
  can0  700   [8]  2B 00 00 00 00 00 00 00
  can0  700   [8]  2C 00 00 00 00 00 00 00
  can0  700   [8]  2D 00 00 00 00 00 00 00
  can0  700   [8]  2E 00 00 00 00 00 00 00
  can0  700   [8]  2F 00 00 00 00 00 00 00
  can0  700   [8]  20 00 00 00 00 00 00 00
  can0  700   [8]  10 77 76 00 00 00 00 00
  can0  701   [3]  30 00 00
  can0  700   [8]  21 00 00 00 00 00 00 00
  can0  700   [8]  22 00 00 00 00 00 00 00
  can0  700   [8]  23 00 00 00 00 00 00 00
  can0  700   [8]  24 00 00 00 00 00 00 00
  can0  700   [8]  25 00 00 00 00 00 00 00
  can0  700   [8]  26 00 00 00 00 00 00 00
  can0  700   [8]  27 00 00 00 00 00 00 00
  can0  700   [8]  28 00 00 00 00 00 00 00
  can0  700   [8]  29 00 00 00 00 00 00 00
  can0  700   [8]  2A 00 00 00 00 00 00 00
  can0  700   [8]  2B 00 00 00 00 00 00 00
  can0  700   [8]  2C 00 00 00 00 00 00 00
  can0  700   [8]  2D 00 00 00 00 00 00 00
  can0  700   [8]  2E 00 00 00 00 00 00 00
  can0  700   [8]  2F 00 00 00 00 00 00 00
  can0  700   [8]  20 00 00 00 00 00 00 00
  can0  700   [2]  21 00
  can0  700   [8]  10 78 77 00 00 00 00 00
  can0  701   [3]  30 00 00
  can0  700   [8]  21 00 00 00 00 00 00 00
  can0  700   [8]  22 00 00 00 00 00 00 00
  can0  700   [8]  23 00 00 00 00 00 00 00
  can0  700   [8]  24 00 00 00 00 00 00 00
  can0  700   [8]  25 00 00 00 00 00 00 00
  can0  700   [8]  26 00 00 00 00 00 00 00
  can0  700   [8]  27 00 00 00 00 00 00 00
  can0  700   [8]  28 00 00 00 00 00 00 00
  can0  700   [8]  29 00 00 00 00 00 00 00
  can0  700   [8]  2A 00 00 00 00 00 00 00
  can0  700   [8]  2B 00 00 00 00 00 00 00
  can0  700   [8]  2C 00 00 00 00 00 00 00
  can0  700   [8]  2D 00 00 00 00 00 00 00
  can0  700   [8]  2E 00 00 00 00 00 00 00
  can0  700   [8]  2F 00 00 00 00 00 00 00
  can0  700   [8]  20 00 00 00 00 00 00 00
  can0  700   [3]  21 00 00
  can0  700   [8]  10 79 78 00 00 00 00 00
  can0  701   [3]  30 00 00
  can0  700   [8]  21 00 00 00 00 00 00 00
  can0  700   [8]  22 00 00 00 00 00 00 00
  can0  700   [8]  23 00 00 00 00 00 00 00
  can0  700   [8]  24 00 00 00 00 00 00 00
  can0  700   [8]  25 00 00 00 00 00 00 00
  can0  700   [8]  26 00 00 00 00 00 00 00
  can0  700   [8]  27 00 00 00 00 00 00 00
  can0  700   [8]  28 00 00 00 00 00 00 00
  can0  700   [8]  29 00 00 00 00 00 00 00
  can0  700   [8]  2A 00 00 00 00 00 00 00
  can0  700   [8]  2B 00 00 00 00 00 00 00
  can0  700   [8]  2C 00 00 00 00 00 00 00
  can0  700   [8]  2D 00 00 00 00 00 00 00
  can0  700   [8]  2E 00 00 00 00 00 00 00
  can0  700   [8]  2F 00 00 00 00 00 00 00
  can0  700   [8]  20 00 00 00 00 00 00 00
  can0  700   [4]  21 00 00 00
  can0  700   [8]  10 7A 79 00 00 00 00 00
  can0  701   [3]  30 00 00
  can0  700   [8]  21 00 00 00 00 00 00 00
  can0  700   [8]  22 00 00 00 00 00 00 00
  can0  700   [8]  23 00 00 00 00 00 00 00
  can0  700   [8]  24 00 00 00 00 00 00 00
  can0  700   [8]  25 00 00 00 00 00 00 00
  can0  700   [8]  26 00 00 00 00 00 00 00
  can0  700   [8]  27 00 00 00 00 00 00 00
  can0  700   [8]  28 00 00 00 00 00 00 00
  can0  700   [8]  29 00 00 00 00 00 00 00
  can0  700   [8]  2A 00 00 00 00 00 00 00
  can0  700   [8]  2B 00 00 00 00 00 00 00
  can0  700   [8]  2C 00 00 00 00 00 00 00
  can0  700   [8]  2D 00 00 00 00 00 00 00
  can0  700   [8]  2E 00 00 00 00 00 00 00
  can0  700   [8]  2F 00 00 00 00 00 00 00
  can0  700   [8]  20 00 00 00 00 00 00 00
  can0  700   [5]  21 00 00 00 00
  can0  700   [8]  10 7B 7A 00 00 00 00 00
  can0  701   [3]  30 00 00
  can0  700   [8]  21 00 00 00 00 00 00 00
  can0  700   [8]  22 00 00 00 00 00 00 00
  can0  700   [8]  23 00 00 00 00 00 00 00
  can0  700   [8]  24 00 00 00 00 00 00 00
  can0  700   [8]  25 00 00 00 00 00 00 00
  can0  700   [8]  26 00 00 00 00 00 00 00
  can0  700   [8]  27 00 00 00 00 00 00 00
  can0  700   [8]  28 00 00 00 00 00 00 00
  can0  700   [8]  29 00 00 00 00 00 00 00
  can0  700   [8]  2A 00 00 00 00 00 00 00
  can0  700   [8]  2B 00 00 00 00 00 00 00
  can0  700   [8]  2C 00 00 00 00 00 00 00
  can0  700   [8]  2D 00 00 00 00 00 00 00
  can0  700   [8]  2E 00 00 00 00 00 00 00
  can0  700   [8]  2F 00 00 00 00 00 00 00
  can0  700   [8]  20 00 00 00 00 00 00 00
  can0  700   [6]  21 00 00 00 00 00
  can0  700   [8]  10 7C 7B 00 00 00 00 00
  can0  701   [3]  30 00 00
  can0  700   [8]  21 00 00 00 00 00 00 00
  can0  700   [8]  22 00 00 00 00 00 00 00
  can0  700   [8]  23 00 00 00 00 00 00 00
  can0  700   [8]  24 00 00 00 00 00 00 00
  can0  700   [8]  25 00 00 00 00 00 00 00
  can0  700   [8]  26 00 00 00 00 00 00 00
  can0  700   [8]  27 00 00 00 00 00 00 00
  can0  700   [8]  28 00 00 00 00 00 00 00
  can0  700   [8]  29 00 00 00 00 00 00 00
  can0  700   [8]  2A 00 00 00 00 00 00 00
  can0  700   [8]  2B 00 00 00 00 00 00 00
  can0  700   [8]  2C 00 00 00 00 00 00 00
  can0  700   [8]  2D 00 00 00 00 00 00 00
  can0  700   [8]  2E 00 00 00 00 00 00 00
  can0  700   [8]  2F 00 00 00 00 00 00 00
  can0  700   [8]  20 00 00 00 00 00 00 00
  can0  700   [7]  21 00 00 00 00 00 00
  can0  700   [8]  10 7D 7C 00 00 00 00 00
  can0  701   [3]  30 00 00
  can0  700   [8]  21 00 00 00 00 00 00 00
  can0  700   [8]  22 00 00 00 00 00 00 00
  can0  700   [8]  23 00 00 00 00 00 00 00
  can0  700   [8]  24 00 00 00 00 00 00 00
  can0  700   [8]  25 00 00 00 00 00 00 00
  can0  700   [8]  26 00 00 00 00 00 00 00
  can0  700   [8]  27 00 00 00 00 00 00 00
  can0  700   [8]  28 00 00 00 00 00 00 00
  can0  700   [8]  29 00 00 00 00 00 00 00
  can0  700   [8]  2A 00 00 00 00 00 00 00
  can0  700   [8]  2B 00 00 00 00 00 00 00
  can0  700   [8]  2C 00 00 00 00 00 00 00
  can0  700   [8]  2D 00 00 00 00 00 00 00
  can0  700   [8]  2E 00 00 00 00 00 00 00
  can0  700   [8]  2F 00 00 00 00 00 00 00
  can0  700   [8]  20 00 00 00 00 00 00 00
  can0  700   [8]  21 00 00 00 00 00 00 00
  can0  700   [8]  10 7E 7D 00 00 00 00 00
  can0  701   [3]  30 00 00
  can0  700   [8]  21 00 00 00 00 00 00 00
  can0  700   [8]  22 00 00 00 00 00 00 00
  can0  700   [8]  23 00 00 00 00 00 00 00
  can0  700   [8]  24 00 00 00 00 00 00 00
  can0  700   [8]  25 00 00 00 00 00 00 00
  can0  700   [8]  26 00 00 00 00 00 00 00
  can0  700   [8]  27 00 00 00 00 00 00 00
  can0  700   [8]  28 00 00 00 00 00 00 00
  can0  700   [8]  29 00 00 00 00 00 00 00
  can0  700   [8]  2A 00 00 00 00 00 00 00
  can0  700   [8]  2B 00 00 00 00 00 00 00
  can0  700   [8]  2C 00 00 00 00 00 00 00
  can0  700   [8]  2D 00 00 00 00 00 00 00
  can0  700   [8]  2E 00 00 00 00 00 00 00
  can0  700   [8]  2F 00 00 00 00 00 00 00
  can0  700   [8]  20 00 00 00 00 00 00 00
  can0  700   [8]  21 00 00 00 00 00 00 00
  can0  700   [2]  22 00
  can0  700   [8]  10 7F 7E 00 00 00 00 00
  can0  701   [3]  30 00 00
  can0  700   [8]  21 00 00 00 00 00 00 00
  can0  700   [8]  22 00 00 00 00 00 00 00
  can0  700   [8]  23 00 00 00 00 00 00 00
  can0  700   [8]  24 00 00 00 00 00 00 00
  can0  700   [8]  25 00 00 00 00 00 00 00
  can0  700   [8]  26 00 00 00 00 00 00 00
  can0  700   [8]  27 00 00 00 00 00 00 00
  can0  700   [8]  28 00 00 00 00 00 00 00
  can0  700   [8]  29 00 00 00 00 00 00 00
  can0  700   [8]  2A 00 00 00 00 00 00 00
  can0  700   [8]  2B 00 00 00 00 00 00 00
  can0  700   [8]  2C 00 00 00 00 00 00 00
  can0  700   [8]  2D 00 00 00 00 00 00 00
  can0  700   [8]  2E 00 00 00 00 00 00 00
  can0  700   [8]  2F 00 00 00 00 00 00 00
  can0  700   [8]  20 00 00 00 00 00 00 00
  can0  700   [8]  21 00 00 00 00 00 00 00
  can0  700   [3]  22 00 00
  can0  700   [8]  10 80 7F 00 00 00 00 00
  can0  701   [3]  30 00 00
  can0  700   [8]  21 00 00 00 00 00 00 00
  can0  700   [8]  22 00 00 00 00 00 00 00
  can0  700   [8]  23 00 00 00 00 00 00 00
  can0  700   [8]  24 00 00 00 00 00 00 00
  can0  700   [8]  25 00 00 00 00 00 00 00
  can0  700   [8]  26 00 00 00 00 00 00 00
  can0  700   [8]  27 00 00 00 00 00 00 00
  can0  700   [8]  28 00 00 00 00 00 00 00
  can0  700   [8]  29 00 00 00 00 00 00 00
  can0  700   [8]  2A 00 00 00 00 00 00 00
  can0  700   [8]  2B 00 00 00 00 00 00 00
  can0  700   [8]  2C 00 00 00 00 00 00 00
  can0  700   [8]  2D 00 00 00 00 00 00 00
  can0  700   [8]  2E 00 00 00 00 00 00 00
  can0  700   [8]  2F 00 00 00 00 00 00 00
  can0  700   [8]  20 00 00 00 00 00 00 00
  can0  700   [8]  21 00 00 00 00 00 00 00
  can0  700   [4]  22 00 00 00
  can0  700   [8]  10 81 80 00 00 00 00 00
  can0  701   [3]  30 00 00
  can0  700   [8]  21 00 00 00 00 00 00 00
  can0  700   [8]  22 00 00 00 00 00 00 00
  can0  700   [8]  23 00 00 00 00 00 00 00
  can0  700   [8]  24 00 00 00 00 00 00 00
  can0  700   [8]  25 00 00 00 00 00 00 00
  can0  700   [8]  26 00 00 00 00 00 00 00
  can0  700   [8]  27 00 00 00 00 00 00 00
  can0  700   [8]  28 00 00 00 00 00 00 00
  can0  700   [8]  29 00 00 00 00 00 00 00
  can0  700   [8]  2A 00 00 00 00 00 00 00
  can0  700   [8]  2B 00 00 00 00 00 00 00
  can0  700   [8]  2C 00 00 00 00 00 00 00
  can0  700   [8]  2D 00 00 00 00 00 00 00
  can0  700   [8]  2E 00 00 00 00 00 00 00
  can0  700   [8]  2F 00 00 00 00 00 00 00
  can0  700   [8]  20 00 00 00 00 00 00 00
  can0  700   [8]  21 00 00 00 00 00 00 00
  can0  700   [5]  22 00 00 00 00
  can0  700   [8]  10 82 81 00 00 00 00 00
  can0  701   [3]  30 00 00
  can0  700   [8]  21 00 00 00 00 00 00 00
  can0  700   [8]  22 00 00 00 00 00 00 00
  can0  700   [8]  23 00 00 00 00 00 00 00
  can0  700   [8]  24 00 00 00 00 00 00 00
  can0  700   [8]  25 00 00 00 00 00 00 00
  can0  700   [8]  26 00 00 00 00 00 00 00
  can0  700   [8]  27 00 00 00 00 00 00 00
  can0  700   [8]  28 00 00 00 00 00 00 00
  can0  700   [8]  29 00 00 00 00 00 00 00
  can0  700   [8]  2A 00 00 00 00 00 00 00
  can0  700   [8]  2B 00 00 00 00 00 00 00
  can0  700   [8]  2C 00 00 00 00 00 00 00
  can0  700   [8]  2D 00 00 00 00 00 00 00
  can0  700   [8]  2E 00 00 00 00 00 00 00
  can0  700   [8]  2F 00 00 00 00 00 00 00
  can0  700   [8]  20 00 00 00 00 00 00 00
  can0  700   [8]  21 00 00 00 00 00 00 00
  can0  700   [6]  22 00 00 00 00 00
  can0  700   [8]  10 83 82 00 00 00 00 00
  can0  701   [3]  30 00 00
  can0  700   [8]  21 00 00 00 00 00 00 00
  can0  700   [8]  22 00 00 00 00 00 00 00
  can0  700   [8]  23 00 00 00 00 00 00 00
  can0  700   [8]  24 00 00 00 00 00 00 00
  can0  700   [8]  25 00 00 00 00 00 00 00
  can0  700   [8]  26 00 00 00 00 00 00 00
  can0  700   [8]  27 00 00 00 00 00 00 00
  can0  700   [8]  28 00 00 00 00 00 00 00
  can0  700   [8]  29 00 00 00 00 00 00 00
  can0  700   [8]  2A 00 00 00 00 00 00 00
  can0  700   [8]  2B 00 00 00 00 00 00 00
  can0  700   [8]  2C 00 00 00 00 00 00 00
  can0  700   [8]  2D 00 00 00 00 00 00 00
  can0  700   [8]  2E 00 00 00 00 00 00 00
  can0  700   [8]  2F 00 00 00 00 00 00 00
  can0  700   [8]  20 00 00 00 00 00 00 00
  can0  700   [8]  21 00 00 00 00 00 00 00
  can0  700   [7]  22 00 00 00 00 00 00
  can0  700   [8]  10 84 83 00 00 00 00 00
  can0  701   [3]  30 00 00
  can0  700   [8]  21 00 00 00 00 00 00 00
  can0  700   [8]  22 00 00 00 00 00 00 00
  can0  700   [8]  23 00 00 00 00 00 00 00
  can0  700   [8]  24 00 00 00 00 00 00 00
  can0  700   [8]  25 00 00 00 00 00 00 00
  can0  700   [8]  26 00 00 00 00 00 00 00
  can0  700   [8]  27 00 00 00 00 00 00 00
  can0  700   [8]  28 00 00 00 00 00 00 00
  can0  700   [8]  29 00 00 00 00 00 00 00
  can0  700   [8]  2A 00 00 00 00 00 00 00
  can0  700   [8]  2B 00 00 00 00 00 00 00
  can0  700   [8]  2C 00 00 00 00 00 00 00
  can0  700   [8]  2D 00 00 00 00 00 00 00
  can0  700   [8]  2E 00 00 00 00 00 00 00
  can0  700   [8]  2F 00 00 00 00 00 00 00
  can0  700   [8]  20 00 00 00 00 00 00 00
  can0  700   [8]  21 00 00 00 00 00 00 00
  can0  700   [8]  22 00 00 00 00 00 00 00
  can0  700   [8]  10 85 84 00 00 00 00 00
  can0  701   [3]  30 00 00
  can0  700   [8]  21 00 00 00 00 00 00 00
  can0  700   [8]  22 00 00 00 00 00 00 00
  can0  700   [8]  23 00 00 00 00 00 00 00
  can0  700   [8]  24 00 00 00 00 00 00 00
  can0  700   [8]  25 00 00 00 00 00 00 00
  can0  700   [8]  26 00 00 00 00 00 00 00
  can0  700   [8]  27 00 00 00 00 00 00 00
  can0  700   [8]  28 00 00 00 00 00 00 00
  can0  700   [8]  29 00 00 00 00 00 00 00
  can0  700   [8]  2A 00 00 00 00 00 00 00
  can0  700   [8]  2B 00 00 00 00 00 00 00
  can0  700   [8]  2C 00 00 00 00 00 00 00
  can0  700   [8]  2D 00 00 00 00 00 00 00
  can0  700   [8]  2E 00 00 00 00 00 00 00
  can0  700   [8]  2F 00 00 00 00 00 00 00
  can0  700   [8]  20 00 00 00 00 00 00 00
  can0  700   [8]  21 00 00 00 00 00 00 00
  can0  700   [8]  22 00 00 00 00 00 00 00
  can0  700   [2]  23 00
  can0  700   [8]  10 86 85 00 00 00 00 00
  can0  701   [3]  30 00 00
  can0  700   [8]  21 00 00 00 00 00 00 00
  can0  700   [8]  22 00 00 00 00 00 00 00
  can0  700   [8]  23 00 00 00 00 00 00 00
  can0  700   [8]  24 00 00 00 00 00 00 00
  can0  700   [8]  25 00 00 00 00 00 00 00
  can0  700   [8]  26 00 00 00 00 00 00 00
  can0  700   [8]  27 00 00 00 00 00 00 00
  can0  700   [8]  28 00 00 00 00 00 00 00
  can0  700   [8]  29 00 00 00 00 00 00 00
  can0  700   [8]  2A 00 00 00 00 00 00 00
  can0  700   [8]  2B 00 00 00 00 00 00 00
  can0  700   [8]  2C 00 00 00 00 00 00 00
  can0  700   [8]  2D 00 00 00 00 00 00 00
  can0  700   [8]  2E 00 00 00 00 00 00 00
  can0  700   [8]  2F 00 00 00 00 00 00 00
  can0  700   [8]  20 00 00 00 00 00 00 00
  can0  700   [8]  21 00 00 00 00 00 00 00
  can0  700   [8]  22 00 00 00 00 00 00 00
  can0  700   [3]  23 00 00
  can0  700   [8]  10 87 86 00 00 00 00 00
  can0  701   [3]  30 00 00
  can0  700   [8]  21 00 00 00 00 00 00 00
  can0  700   [8]  22 00 00 00 00 00 00 00
  can0  700   [8]  23 00 00 00 00 00 00 00
  can0  700   [8]  24 00 00 00 00 00 00 00
  can0  700   [8]  25 00 00 00 00 00 00 00
  can0  700   [8]  26 00 00 00 00 00 00 00
  can0  700   [8]  27 00 00 00 00 00 00 00
  can0  700   [8]  28 00 00 00 00 00 00 00
  can0  700   [8]  29 00 00 00 00 00 00 00
  can0  700   [8]  2A 00 00 00 00 00 00 00
  can0  700   [8]  2B 00 00 00 00 00 00 00
  can0  700   [8]  2C 00 00 00 00 00 00 00
  can0  700   [8]  2D 00 00 00 00 00 00 00
  can0  700   [8]  2E 00 00 00 00 00 00 00
  can0  700   [8]  2F 00 00 00 00 00 00 00
  can0  700   [8]  20 00 00 00 00 00 00 00
  can0  700   [8]  21 00 00 00 00 00 00 00
  can0  700   [8]  22 00 00 00 00 00 00 00
  can0  700   [4]  23 00 00 00
  can0  700   [8]  10 88 87 00 00 00 00 00
  can0  701   [3]  30 00 00
  can0  700   [8]  21 00 00 00 00 00 00 00
  can0  700   [8]  22 00 00 00 00 00 00 00
  can0  700   [8]  23 00 00 00 00 00 00 00
  can0  700   [8]  24 00 00 00 00 00 00 00
  can0  700   [8]  25 00 00 00 00 00 00 00
  can0  700   [8]  26 00 00 00 00 00 00 00
  can0  700   [8]  27 00 00 00 00 00 00 00
  can0  700   [8]  28 00 00 00 00 00 00 00
  can0  700   [8]  29 00 00 00 00 00 00 00
  can0  700   [8]  2A 00 00 00 00 00 00 00
  can0  700   [8]  2B 00 00 00 00 00 00 00
  can0  700   [8]  2C 00 00 00 00 00 00 00
  can0  700   [8]  2D 00 00 00 00 00 00 00
  can0  700   [8]  2E 00 00 00 00 00 00 00
  can0  700   [8]  2F 00 00 00 00 00 00 00
  can0  700   [8]  20 00 00 00 00 00 00 00
  can0  700   [8]  21 00 00 00 00 00 00 00
  can0  700   [8]  22 00 00 00 00 00 00 00
  can0  700   [5]  23 00 00 00 00
  can0  700   [8]  10 89 88 00 00 00 00 00
  can0  701   [3]  30 00 00
  can0  700   [8]  21 00 00 00 00 00 00 00
  can0  700   [8]  22 00 00 00 00 00 00 00
  can0  700   [8]  23 00 00 00 00 00 00 00
  can0  700   [8]  24 00 00 00 00 00 00 00
  can0  700   [8]  25 00 00 00 00 00 00 00
  can0  700   [8]  26 00 00 00 00 00 00 00
  can0  700   [8]  27 00 00 00 00 00 00 00
  can0  700   [8]  28 00 00 00 00 00 00 00
  can0  700   [8]  29 00 00 00 00 00 00 00
  can0  700   [8]  2A 00 00 00 00 00 00 00
  can0  700   [8]  2B 00 00 00 00 00 00 00
  can0  700   [8]  2C 00 00 00 00 00 00 00
  can0  700   [8]  2D 00 00 00 00 00 00 00
  can0  700   [8]  2E 00 00 00 00 00 00 00
  can0  700   [8]  2F 00 00 00 00 00 00 00
  can0  700   [8]  20 00 00 00 00 00 00 00
  can0  700   [8]  21 00 00 00 00 00 00 00
  can0  700   [8]  22 00 00 00 00 00 00 00
  can0  700   [6]  23 00 00 00 00 00
  can0  700   [8]  10 8A 89 00 00 00 00 00
  can0  701   [3]  30 00 00
  can0  700   [8]  21 00 00 00 00 00 00 00
  can0  700   [8]  22 00 00 00 00 00 00 00
  can0  700   [8]  23 00 00 00 00 00 00 00
  can0  700   [8]  24 00 00 00 00 00 00 00
  can0  700   [8]  25 00 00 00 00 00 00 00
  can0  700   [8]  26 00 00 00 00 00 00 00
  can0  700   [8]  27 00 00 00 00 00 00 00
  can0  700   [8]  28 00 00 00 00 00 00 00
  can0  700   [8]  29 00 00 00 00 00 00 00
  can0  700   [8]  2A 00 00 00 00 00 00 00
  can0  700   [8]  2B 00 00 00 00 00 00 00
  can0  700   [8]  2C 00 00 00 00 00 00 00
  can0  700   [8]  2D 00 00 00 00 00 00 00
  can0  700   [8]  2E 00 00 00 00 00 00 00
  can0  700   [8]  2F 00 00 00 00 00 00 00
  can0  700   [8]  20 00 00 00 00 00 00 00
  can0  700   [8]  21 00 00 00 00 00 00 00
  can0  700   [8]  22 00 00 00 00 00 00 00
  can0  700   [7]  23 00 00 00 00 00 00
  can0  700   [8]  10 8B 8A 00 00 00 00 00
  can0  701   [3]  30 00 00
  can0  700   [8]  21 00 00 00 00 00 00 00
  can0  700   [8]  22 00 00 00 00 00 00 00
  can0  700   [8]  23 00 00 00 00 00 00 00
  can0  700   [8]  24 00 00 00 00 00 00 00
  can0  700   [8]  25 00 00 00 00 00 00 00
  can0  700   [8]  26 00 00 00 00 00 00 00
  can0  700   [8]  27 00 00 00 00 00 00 00
  can0  700   [8]  28 00 00 00 00 00 00 00
  can0  700   [8]  29 00 00 00 00 00 00 00
  can0  700   [8]  2A 00 00 00 00 00 00 00
  can0  700   [8]  2B 00 00 00 00 00 00 00
  can0  700   [8]  2C 00 00 00 00 00 00 00
  can0  700   [8]  2D 00 00 00 00 00 00 00
  can0  700   [8]  2E 00 00 00 00 00 00 00
  can0  700   [8]  2F 00 00 00 00 00 00 00
  can0  700   [8]  20 00 00 00 00 00 00 00
  can0  700   [8]  21 00 00 00 00 00 00 00
  can0  700   [8]  22 00 00 00 00 00 00 00
  can0  700   [8]  23 00 00 00 00 00 00 00
  can0  700   [8]  10 8C 8B 00 00 00 00 00
  can0  701   [3]  30 00 00
  can0  700   [8]  21 00 00 00 00 00 00 00
  can0  700   [8]  22 00 00 00 00 00 00 00
  can0  700   [8]  23 00 00 00 00 00 00 00
  can0  700   [8]  24 00 00 00 00 00 00 00
  can0  700   [8]  25 00 00 00 00 00 00 00
  can0  700   [8]  26 00 00 00 00 00 00 00
  can0  700   [8]  27 00 00 00 00 00 00 00
  can0  700   [8]  28 00 00 00 00 00 00 00
  can0  700   [8]  29 00 00 00 00 00 00 00
  can0  700   [8]  2A 00 00 00 00 00 00 00
  can0  700   [8]  2B 00 00 00 00 00 00 00
  can0  700   [8]  2C 00 00 00 00 00 00 00
  can0  700   [8]  2D 00 00 00 00 00 00 00
  can0  700   [8]  2E 00 00 00 00 00 00 00
  can0  700   [8]  2F 00 00 00 00 00 00 00
  can0  700   [8]  20 00 00 00 00 00 00 00
  can0  700   [8]  21 00 00 00 00 00 00 00
  can0  700   [8]  22 00 00 00 00 00 00 00
  can0  700   [8]  23 00 00 00 00 00 00 00
  can0  700   [2]  24 00
  can0  700   [8]  10 8D 8C 00 00 00 00 00
  can0  701   [3]  30 00 00
  can0  700   [8]  21 00 00 00 00 00 00 00
  can0  700   [8]  22 00 00 00 00 00 00 00
  can0  700   [8]  23 00 00 00 00 00 00 00
  can0  700   [8]  24 00 00 00 00 00 00 00
  can0  700   [8]  25 00 00 00 00 00 00 00
  can0  700   [8]  26 00 00 00 00 00 00 00
  can0  700   [8]  27 00 00 00 00 00 00 00
  can0  700   [8]  28 00 00 00 00 00 00 00
  can0  700   [8]  29 00 00 00 00 00 00 00
  can0  700   [8]  2A 00 00 00 00 00 00 00
  can0  700   [8]  2B 00 00 00 00 00 00 00
  can0  700   [8]  2C 00 00 00 00 00 00 00
  can0  700   [8]  2D 00 00 00 00 00 00 00
  can0  700   [8]  2E 00 00 00 00 00 00 00
  can0  700   [8]  2F 00 00 00 00 00 00 00
  can0  700   [8]  20 00 00 00 00 00 00 00
  can0  700   [8]  21 00 00 00 00 00 00 00
  can0  700   [8]  22 00 00 00 00 00 00 00
  can0  700   [8]  23 00 00 00 00 00 00 00
  can0  700   [3]  24 00 00
  can0  700   [8]  10 8E 8D 00 00 00 00 00
  can0  701   [3]  30 00 00
  can0  700   [8]  21 00 00 00 00 00 00 00
  can0  700   [8]  22 00 00 00 00 00 00 00
  can0  700   [8]  23 00 00 00 00 00 00 00
  can0  700   [8]  24 00 00 00 00 00 00 00
  can0  700   [8]  25 00 00 00 00 00 00 00
  can0  700   [8]  26 00 00 00 00 00 00 00
  can0  700   [8]  27 00 00 00 00 00 00 00
  can0  700   [8]  28 00 00 00 00 00 00 00
  can0  700   [8]  29 00 00 00 00 00 00 00
  can0  700   [8]  2A 00 00 00 00 00 00 00
  can0  700   [8]  2B 00 00 00 00 00 00 00
  can0  700   [8]  2C 00 00 00 00 00 00 00
  can0  700   [8]  2D 00 00 00 00 00 00 00
  can0  700   [8]  2E 00 00 00 00 00 00 00
  can0  700   [8]  2F 00 00 00 00 00 00 00
  can0  700   [8]  20 00 00 00 00 00 00 00
  can0  700   [8]  21 00 00 00 00 00 00 00
  can0  700   [8]  22 00 00 00 00 00 00 00
  can0  700   [8]  23 00 00 00 00 00 00 00
  can0  700   [4]  24 00 00 00
  can0  700   [8]  10 8F 8E 00 00 00 00 00
  can0  701   [3]  30 00 00
  can0  700   [8]  21 00 00 00 00 00 00 00
  can0  700   [8]  22 00 00 00 00 00 00 00
  can0  700   [8]  23 00 00 00 00 00 00 00
  can0  700   [8]  24 00 00 00 00 00 00 00
  can0  700   [8]  25 00 00 00 00 00 00 00
  can0  700   [8]  26 00 00 00 00 00 00 00
  can0  700   [8]  27 00 00 00 00 00 00 00
  can0  700   [8]  28 00 00 00 00 00 00 00
  can0  700   [8]  29 00 00 00 00 00 00 00
  can0  700   [8]  2A 00 00 00 00 00 00 00
  can0  700   [8]  2B 00 00 00 00 00 00 00
  can0  700   [8]  2C 00 00 00 00 00 00 00
  can0  700   [8]  2D 00 00 00 00 00 00 00
  can0  700   [8]  2E 00 00 00 00 00 00 00
  can0  700   [8]  2F 00 00 00 00 00 00 00
  can0  700   [8]  20 00 00 00 00 00 00 00
  can0  700   [8]  21 00 00 00 00 00 00 00
  can0  700   [8]  22 00 00 00 00 00 00 00
  can0  700   [8]  23 00 00 00 00 00 00 00
  can0  700   [5]  24 00 00 00 00
  can0  700   [8]  10 90 8F 00 00 00 00 00
  can0  701   [3]  30 00 00
  can0  700   [8]  21 00 00 00 00 00 00 00
  can0  700   [8]  22 00 00 00 00 00 00 00
  can0  700   [8]  23 00 00 00 00 00 00 00
  can0  700   [8]  24 00 00 00 00 00 00 00
  can0  700   [8]  25 00 00 00 00 00 00 00
  can0  700   [8]  26 00 00 00 00 00 00 00
  can0  700   [8]  27 00 00 00 00 00 00 00
  can0  700   [8]  28 00 00 00 00 00 00 00
  can0  700   [8]  29 00 00 00 00 00 00 00
  can0  700   [8]  2A 00 00 00 00 00 00 00
  can0  700   [8]  2B 00 00 00 00 00 00 00
  can0  700   [8]  2C 00 00 00 00 00 00 00
  can0  700   [8]  2D 00 00 00 00 00 00 00
  can0  700   [8]  2E 00 00 00 00 00 00 00
  can0  700   [8]  2F 00 00 00 00 00 00 00
  can0  700   [8]  20 00 00 00 00 00 00 00
  can0  700   [8]  21 00 00 00 00 00 00 00
  can0  700   [8]  22 00 00 00 00 00 00 00
  can0  700   [8]  23 00 00 00 00 00 00 00
  can0  700   [6]  24 00 00 00 00 00
  can0  700   [8]  10 91 90 00 00 00 00 00
  can0  701   [3]  30 00 00
  can0  700   [8]  21 00 00 00 00 00 00 00
  can0  700   [8]  22 00 00 00 00 00 00 00
  can0  700   [8]  23 00 00 00 00 00 00 00
  can0  700   [8]  24 00 00 00 00 00 00 00
  can0  700   [8]  25 00 00 00 00 00 00 00
  can0  700   [8]  26 00 00 00 00 00 00 00
  can0  700   [8]  27 00 00 00 00 00 00 00
  can0  700   [8]  28 00 00 00 00 00 00 00
  can0  700   [8]  29 00 00 00 00 00 00 00
  can0  700   [8]  2A 00 00 00 00 00 00 00
  can0  700   [8]  2B 00 00 00 00 00 00 00
  can0  700   [8]  2C 00 00 00 00 00 00 00
  can0  700   [8]  2D 00 00 00 00 00 00 00
  can0  700   [8]  2E 00 00 00 00 00 00 00
  can0  700   [8]  2F 00 00 00 00 00 00 00
  can0  700   [8]  20 00 00 00 00 00 00 00
  can0  700   [8]  21 00 00 00 00 00 00 00
  can0  700   [8]  22 00 00 00 00 00 00 00
  can0  700   [8]  23 00 00 00 00 00 00 00
  can0  700   [7]  24 00 00 00 00 00 00
  can0  700   [8]  10 92 91 00 00 00 00 00
  can0  701   [3]  30 00 00
  can0  700   [8]  21 00 00 00 00 00 00 00
  can0  700   [8]  22 00 00 00 00 00 00 00
  can0  700   [8]  23 00 00 00 00 00 00 00
  can0  700   [8]  24 00 00 00 00 00 00 00
  can0  700   [8]  25 00 00 00 00 00 00 00
  can0  700   [8]  26 00 00 00 00 00 00 00
  can0  700   [8]  27 00 00 00 00 00 00 00
  can0  700   [8]  28 00 00 00 00 00 00 00
  can0  700   [8]  29 00 00 00 00 00 00 00
  can0  700   [8]  2A 00 00 00 00 00 00 00
  can0  700   [8]  2B 00 00 00 00 00 00 00
  can0  700   [8]  2C 00 00 00 00 00 00 00
  can0  700   [8]  2D 00 00 00 00 00 00 00
  can0  700   [8]  2E 00 00 00 00 00 00 00
  can0  700   [8]  2F 00 00 00 00 00 00 00
  can0  700   [8]  20 00 00 00 00 00 00 00
  can0  700   [8]  21 00 00 00 00 00 00 00
  can0  700   [8]  22 00 00 00 00 00 00 00
  can0  700   [8]  23 00 00 00 00 00 00 00
  can0  700   [8]  24 00 00 00 00 00 00 00
  can0  700   [8]  10 93 92 00 00 00 00 00
  can0  701   [3]  30 00 00
  can0  700   [8]  21 00 00 00 00 00 00 00
  can0  700   [8]  22 00 00 00 00 00 00 00
  can0  700   [8]  23 00 00 00 00 00 00 00
  can0  700   [8]  24 00 00 00 00 00 00 00
  can0  700   [8]  25 00 00 00 00 00 00 00
  can0  700   [8]  26 00 00 00 00 00 00 00
  can0  700   [8]  27 00 00 00 00 00 00 00
  can0  700   [8]  28 00 00 00 00 00 00 00
  can0  700   [8]  29 00 00 00 00 00 00 00
  can0  700   [8]  2A 00 00 00 00 00 00 00
  can0  700   [8]  2B 00 00 00 00 00 00 00
  can0  700   [8]  2C 00 00 00 00 00 00 00
  can0  700   [8]  2D 00 00 00 00 00 00 00
  can0  700   [8]  2E 00 00 00 00 00 00 00
  can0  700   [8]  2F 00 00 00 00 00 00 00
  can0  700   [8]  20 00 00 00 00 00 00 00
  can0  700   [8]  21 00 00 00 00 00 00 00
  can0  700   [8]  22 00 00 00 00 00 00 00
  can0  700   [8]  23 00 00 00 00 00 00 00
  can0  700   [8]  24 00 00 00 00 00 00 00
  can0  700   [2]  25 00
  can0  700   [8]  10 94 93 00 00 00 00 00
  can0  701   [3]  30 00 00
  can0  700   [8]  21 00 00 00 00 00 00 00
  can0  700   [8]  22 00 00 00 00 00 00 00
  can0  700   [8]  23 00 00 00 00 00 00 00
  can0  700   [8]  24 00 00 00 00 00 00 00
  can0  700   [8]  25 00 00 00 00 00 00 00
  can0  700   [8]  26 00 00 00 00 00 00 00
  can0  700   [8]  27 00 00 00 00 00 00 00
  can0  700   [8]  28 00 00 00 00 00 00 00
  can0  700   [8]  29 00 00 00 00 00 00 00
  can0  700   [8]  2A 00 00 00 00 00 00 00
  can0  700   [8]  2B 00 00 00 00 00 00 00
  can0  700   [8]  2C 00 00 00 00 00 00 00
  can0  700   [8]  2D 00 00 00 00 00 00 00
  can0  700   [8]  2E 00 00 00 00 00 00 00
  can0  700   [8]  2F 00 00 00 00 00 00 00
  can0  700   [8]  20 00 00 00 00 00 00 00
  can0  700   [8]  21 00 00 00 00 00 00 00
  can0  700   [8]  22 00 00 00 00 00 00 00
  can0  700   [8]  23 00 00 00 00 00 00 00
  can0  700   [8]  24 00 00 00 00 00 00 00
  can0  700   [3]  25 00 00
  can0  700   [8]  10 95 94 00 00 00 00 00
  can0  701   [3]  30 00 00
  can0  700   [8]  21 00 00 00 00 00 00 00
  can0  700   [8]  22 00 00 00 00 00 00 00
  can0  700   [8]  23 00 00 00 00 00 00 00
  can0  700   [8]  24 00 00 00 00 00 00 00
  can0  700   [8]  25 00 00 00 00 00 00 00
  can0  700   [8]  26 00 00 00 00 00 00 00
  can0  700   [8]  27 00 00 00 00 00 00 00
  can0  700   [8]  28 00 00 00 00 00 00 00
  can0  700   [8]  29 00 00 00 00 00 00 00
  can0  700   [8]  2A 00 00 00 00 00 00 00
  can0  700   [8]  2B 00 00 00 00 00 00 00
  can0  700   [8]  2C 00 00 00 00 00 00 00
  can0  700   [8]  2D 00 00 00 00 00 00 00
  can0  700   [8]  2E 00 00 00 00 00 00 00
  can0  700   [8]  2F 00 00 00 00 00 00 00
  can0  700   [8]  20 00 00 00 00 00 00 00
  can0  700   [8]  21 00 00 00 00 00 00 00
  can0  700   [8]  22 00 00 00 00 00 00 00
  can0  700   [8]  23 00 00 00 00 00 00 00
  can0  700   [8]  24 00 00 00 00 00 00 00
  can0  700   [4]  25 00 00 00
  can0  700   [8]  10 96 95 00 00 00 00 00
  can0  701   [3]  30 00 00
