  can0  700   [3]  02 01 00
  can0  700   [4]  03 02 00 00
  can0  700   [5]  04 03 00 00 00
  can0  700   [6]  05 04 00 00 00 00
  can0  700   [7]  06 05 00 00 00 00 00
  can0  700   [8]  07 06 00 00 00 00 00 00
  can0  700   [8]  10 08 07 00 00 00 00 00
  can0  701   [3]  30 00 00
  can0  700   [3]  21 00 00
  can0  700   [8]  10 09 08 00 00 00 00 00
  can0  701   [3]  30 00 00
  can0  700   [4]  21 00 00 00
  can0  700   [8]  10 0A 09 00 00 00 00 00
  can0  701   [3]  30 00 00
  can0  700   [5]  21 00 00 00 00
  can0  700   [8]  10 0B 0A 00 00 00 00 00
  can0  701   [3]  30 00 00
  can0  700   [6]  21 00 00 00 00 00
  can0  700   [8]  10 0C 0B 00 00 00 00 00
  can0  701   [3]  30 00 00
  can0  700   [7]  21 00 00 00 00 00 00
  can0  700   [8]  10 0D 0C 00 00 00 00 00
  can0  701   [3]  30 00 00
  can0  700   [8]  21 00 00 00 00 00 00 00
  can0  700   [8]  10 0E 0D 00 00 00 00 00
  can0  701   [3]  30 00 00
  can0  700   [8]  21 00 00 00 00 00 00 00
  can0  700   [2]  22 00
  can0  700   [8]  10 0F 0E 00 00 00 00 00
  can0  701   [3]  30 00 00
  can0  700   [8]  21 00 00 00 00 00 00 00
  can0  700   [3]  22 00 00
  can0  700   [8]  10 10 0F 00 00 00 00 00
  can0  701   [3]  30 00 00
  can0  700   [8]  21 00 00 00 00 00 00 00
  can0  700   [4]  22 00 00 00
  can0  700   [8]  10 11 10 00 00 00 00 00
  can0  701   [3]  30 00 00
  can0  700   [8]  21 00 00 00 00 00 00 00
  can0  700   [5]  22 00 00 00 00
  can0  700   [8]  10 12 11 00 00 00 00 00
  can0  701   [3]  30 00 00
  can0  700   [8]  21 00 00 00 00 00 00 00
  can0  700   [6]  22 00 00 00 00 00
  can0  700   [8]  10 13 12 00 00 00 00 00
  can0  701   [3]  30 00 00
  can0  700   [8]  21 00 00 00 00 00 00 00
  can0  700   [7]  22 00 00 00 00 00 00
  can0  700   [8]  10 14 13 00 00 00 00 00
  can0  701   [3]  30 00 00
  can0  700   [8]  21 00 00 00 00 00 00 00
  can0  700   [8]  22 00 00 00 00 00 00 00
  can0  700   [8]  10 15 14 00 00 00 00 00
  can0  701   [3]  30 00 00
  can0  700   [8]  21 00 00 00 00 00 00 00
  can0  700   [8]  22 00 00 00 00 00 00 00
  can0  700   [2]  23 00
  can0  700   [8]  10 16 15 00 00 00 00 00
  can0  701   [3]  30 00 00
  can0  700   [8]  21 00 00 00 00 00 00 00
  can0  700   [8]  22 00 00 00 00 00 00 00
  can0  700   [3]  23 00 00
  can0  700   [8]  10 17 16 00 00 00 00 00
  can0  701   [3]  30 00 00
  can0  700   [8]  21 00 00 00 00 00 00 00
  can0  700   [8]  22 00 00 00 00 00 00 00
  can0  700   [4]  23 00 00 00
  can0  700   [8]  10 18 17 00 00 00 00 00
  can0  701   [3]  30 00 00
  can0  700   [8]  21 00 00 00 00 00 00 00
  can0  700   [8]  22 00 00 00 00 00 00 00
  can0  700   [5]  23 00 00 00 00
  can0  700   [8]  10 19 18 00 00 00 00 00
  can0  701   [3]  30 00 00
  can0  700   [8]  21 00 00 00 00 00 00 00
  can0  700   [8]  22 00 00 00 00 00 00 00
  can0  700   [6]  23 00 00 00 00 00
  can0  700   [8]  10 1A 19 00 00 00 00 00
  can0  701   [3]  30 00 00
  can0  700   [8]  21 00 00 00 00 00 00 00
  can0  700   [8]  22 00 00 00 00 00 00 00
  can0  700   [7]  23 00 00 00 00 00 00
  can0  700   [8]  10 1B 1A 00 00 00 00 00
  can0  701   [3]  30 00 00
  can0  700   [8]  21 00 00 00 00 00 00 00
  can0  700   [8]  22 00 00 00 00 00 00 00
  can0  700   [8]  23 00 00 00 00 00 00 00
  can0  700   [8]  10 1C 1B 00 00 00 00 00
  can0  701   [3]  30 00 00
  can0  700   [8]  21 00 00 00 00 00 00 00
  can0  700   [8]  22 00 00 00 00 00 00 00
  can0  700   [8]  23 00 00 00 00 00 00 00
  can0  700   [2]  24 00
  can0  700   [8]  10 1D 1C 00 00 00 00 00
  can0  701   [3]  30 00 00
  can0  700   [8]  21 00 00 00 00 00 00 00
  can0  700   [8]  22 00 00 00 00 00 00 00
  can0  700   [8]  23 00 00 00 00 00 00 00
  can0  700   [3]  24 00 00
  can0  700   [8]  10 1E 1D 00 00 00 00 00
  can0  701   [3]  30 00 00
  can0  700   [8]  21 00 00 00 00 00 00 00
  can0  700   [8]  22 00 00 00 00 00 00 00
  can0  700   [8]  23 00 00 00 00 00 00 00
  can0  700   [4]  24 00 00 00
  can0  700   [8]  10 1F 1E 00 00 00 00 00
  can0  701   [3]  30 00 00
  can0  700   [8]  21 00 00 00 00 00 00 00
  can0  700   [8]  22 00 00 00 00 00 00 00
  can0  700   [8]  23 00 00 00 00 00 00 00
  can0  700   [5]  24 00 00 00 00
  can0  700   [8]  10 20 1F 00 00 00 00 00
  can0  701   [3]  30 00 00
  can0  700   [8]  21 00 00 00 00 00 00 00
  can0  700   [8]  22 00 00 00 00 00 00 00
  can0  700   [8]  23 00 00 00 00 00 00 00
  can0  700   [6]  24 00 00 00 00 00
  can0  700   [8]  10 21 20 00 00 00 00 00
  can0  701   [3]  30 00 00
  can0  700   [8]  21 00 00 00 00 00 00 00
  can0  700   [8]  22 00 00 00 00 00 00 00
  can0  700   [8]  23 00 00 00 00 00 00 00
  can0  700   [7]  24 00 00 00 00 00 00
  can0  700   [8]  10 22 21 00 00 00 00 00
  can0  701   [3]  30 00 00
  can0  700   [8]  21 00 00 00 00 00 00 00
  can0  700   [8]  22 00 00 00 00 00 00 00
  can0  700   [8]  23 00 00 00 00 00 00 00
  can0  700   [8]  24 00 00 00 00 00 00 00
  can0  700   [8]  10 23 22 00 00 00 00 00
  can0  701   [3]  30 00 00
  can0  700   [8]  21 00 00 00 00 00 00 00
  can0  700   [8]  22 00 00 00 00 00 00 00
  can0  700   [8]  23 00 00 00 00 00 00 00
  can0  700   [8]  24 00 00 00 00 00 00 00
  can0  700   [2]  25 00
  can0  700   [8]  10 24 23 00 00 00 00 00
  can0  701   [3]  30 00 00
  can0  700   [8]  21 00 00 00 00 00 00 00
  can0  700   [8]  22 00 00 00 00 00 00 00
  can0  700   [8]  23 00 00 00 00 00 00 00
  can0  700   [8]  24 00 00 00 00 00 00 00
  can0  700   [3]  25 00 00
  can0  700   [8]  10 25 24 00 00 00 00 00
  can0  701   [3]  30 00 00
  can0  700   [8]  21 00 00 00 00 00 00 00
  can0  700   [8]  22 00 00 00 00 00 00 00
  can0  700   [8]  23 00 00 00 00 00 00 00
  can0  700   [8]  24 00 00 00 00 00 00 00
  can0  700   [4]  25 00 00 00
  can0  700   [8]  10 26 25 00 00 00 00 00
  can0  701   [3]  30 00 00
  can0  700   [8]  21 00 00 00 00 00 00 00
  can0  700   [8]  22 00 00 00 00 00 00 00
  can0  700   [8]  23 00 00 00 00 00 00 00
  can0  700   [8]  24 00 00 00 00 00 00 00
  can0  700   [5]  25 00 00 00 00
  can0  700   [8]  10 27 26 00 00 00 00 00
  can0  701   [3]  30 00 00
  can0  700   [8]  21 00 00 00 00 00 00 00
  can0  700   [8]  22 00 00 00 00 00 00 00
  can0  700   [8]  23 00 00 00 00 00 00 00
  can0  700   [8]  24 00 00 00 00 00 00 00
  can0  700   [6]  25 00 00 00 00 00
  can0  700   [8]  10 28 27 00 00 00 00 00
  can0  701   [3]  30 00 00
  can0  700   [8]  21 00 00 00 00 00 00 00
  can0  700   [8]  22 00 00 00 00 00 00 00
  can0  700   [8]  23 00 00 00 00 00 00 00
  can0  700   [8]  24 00 00 00 00 00 00 00
  can0  700   [7]  25 00 00 00 00 00 00
  can0  700   [8]  10 29 28 00 00 00 00 00
  can0  701   [3]  30 00 00
  can0  700   [8]  21 00 00 00 00 00 00 00
  can0  700   [8]  22 00 00 00 00 00 00 00
  can0  700   [8]  23 00 00 00 00 00 00 00
  can0  700   [8]  24 00 00 00 00 00 00 00
  can0  700   [8]  25 00 00 00 00 00 00 00
  can0  700   [8]  10 2A 29 00 00 00 00 00
  can0  701   [3]  30 00 00
  can0  700   [8]  21 00 00 00 00 00 00 00
  can0  700   [8]  22 00 00 00 00 00 00 00
  can0  700   [8]  23 00 00 00 00 00 00 00
  can0  700   [8]  24 00 00 00 00 00 00 00
  can0  700   [8]  25 00 00 00 00 00 00 00
  can0  700   [2]  26 00
  can0  700   [3]  02 01 00
  can0  700   [4]  03 02 00 00
  can0  700   [5]  04 03 00 00 00
  can0  700   [6]  05 04 00 00 00 00
  can0  700   [7]  06 05 00 00 00 00 00
  can0  700   [8]  07 06 00 00 00 00 00 00
  can0  700   [8]  10 08 07 00 00 00 00 00
  can0  701   [3]  30 00 00
  can0  700   [3]  21 00 00
  can0  700   [8]  10 09 08 00 00 00 00 00
  can0  701   [3]  30 00 00
  can0  700   [4]  21 00 00 00
  can0  700   [8]  10 0A 09 00 00 00 00 00
  can0  701   [3]  30 00 00
  can0  700   [5]  21 00 00 00 00
  can0  700   [8]  10 0B 0A 00 00 00 00 00
  can0  701   [3]  30 00 00
  can0  700   [6]  21 00 00 00 00 00
  can0  700   [8]  10 0C 0B 00 00 00 00 00
  can0  701   [3]  30 00 00
  can0  700   [7]  21 00 00 00 00 00 00
  can0  468   [0] 
  can0  30E   [1]  FB
  can0  040   [2]  9F 0B
  can0  0A6   [3]  8A E7 F6
  can0  3A3   [4]  A9 51 0C 05
  can0  738   [5]  CA D6 0A 66 56
  can0  64A   [6]  A0 68 82 57 14 8A
  can0  043   [7]  78 55 E5 1C 1C 94 A6
  can0  131   [8]  D1 D1 1E 20 D8 3B 88 79
  can0  6CA   [0] 
  can0  1F6   [1]  9E
  can0  7C4   [2]  AC FC
  can0  011   [3]  ED 24 77
  can0  4A1   [4]  93 D5 10 0B
